(1669735231.489627) vcan0 133#00000000B6
(1669735231.489632) vcan0 136#0002000000000039
(1669735231.489638) vcan0 13A#0000000000000037
(1669735231.489643) vcan0 13F#000000050000003D
(1669735231.489648) vcan0 164#0000C01AA8000013
(1669735231.489653) vcan0 17C#0000000010000030
(1669735231.489661) vcan0 039#0039
(1669735231.491493) vcan0 18E#00007A
(1669735231.491526) vcan0 294#040B0002CF5A002C
(1669735231.491534) vcan0 21E#03E8374522062F
(1669735231.491543) vcan0 183#0000000300001035
(1669735231.492885) vcan0 143#6B6B00FF
(1669735231.492979) vcan0 244#000000016A
(1669735231.494478) vcan0 095#800007F400000026
(1669735231.496403) vcan0 166#D0320036
(1669735231.498289) vcan0 158#0000000000000037
(1669735231.498306) vcan0 161#000005500108003A
(1669735231.498312) vcan0 191#010010A1410029
(1669735231.498319) vcan0 133#0000000089
(1669735231.500249) vcan0 136#000200000000000C
(1669735231.500266) vcan0 13A#000000000000000A
(1669735231.500271) vcan0 13F#0000000500000000
(1669735231.500280) vcan0 164#0000C01AA8000022
(1669735231.500286) vcan0 17C#0000000010000003
(1669735231.500292) vcan0 18E#00004D
(1669735231.500298) vcan0 1CF#80050000000F
(1669735231.500304) vcan0 1DC#0200000C
(1669735231.502205) vcan0 183#0000000A00001001
(1669735231.502220) vcan0 143#6B6B00C2
(1669735231.502225) vcan0 039#000C
(1669735231.504198) vcan0 333#0000000000001E
(1669735231.504232) vcan0 095#800007F400000035
(1669735231.504244) vcan0 1A4#000000080000002F
(1669735231.504310) vcan0 244#000000017C
(1669735231.506119) vcan0 1AA#7FFF000000006720
(1669735231.506141) vcan0 1B0#000F0000000166
(1669735231.506149) vcan0 1D0#000000000000000A
(1669735231.508075) vcan0 166#D0320009
(1669735231.508102) vcan0 158#000000000000000A
(1669735231.508113) vcan0 161#000005500108000D
(1669735231.508167) vcan0 191#010010A1410038
(1669735231.510008) vcan0 133#0000000098
(1669735231.510024) vcan0 136#000200000000001B
(1669735231.510032) vcan0 13A#0000000000000019
(1669735231.510040) vcan0 13F#000000050000001F
(1669735231.510048) vcan0 164#0000C01AA8000031
(1669735231.510065) vcan0 17C#0000000010000012
(1669735231.510073) vcan0 18E#00005C
(1669735231.511960) vcan0 183#0000000700001013
(1669735231.511977) vcan0 143#6B6B00D1
(1669735231.513909) vcan0 095#800007F400000008
(1669735231.515924) vcan0 244#00000001CA
(1669735231.517821) vcan0 166#D0320018
(1669735231.517841) vcan0 158#0000000000000019
(1669735231.517850) vcan0 161#000005500108001C
(1669735231.519356) vcan0 191#010010A141000B
(1669735231.519373) vcan0 133#00000000A7
(1669735231.519381) vcan0 136#000200000000002A
(1669735231.519389) vcan0 13A#0000000000000028
(1669735231.519397) vcan0 13F#000000050000002E
(1669735231.519406) vcan0 164#0000C01AA8000004
(1669735231.521345) vcan0 17C#0000000010000021
(1669735231.521367) vcan0 18E#00006B
(1669735231.521376) vcan0 1CF#80050000001E
(1669735231.521384) vcan0 1DC#0200001B
(1669735231.521391) vcan0 320#000012
(1669735231.521399) vcan0 324#7465000000000E1A
(1669735231.521408) vcan0 37C#FD00FD00097F001A
(1669735231.521415) vcan0 183#0000000500001024
(1669735231.521422) vcan0 40C#0236323239533039
(1669735231.521441) vcan0 454#23EF36
(1669735231.523318) vcan0 143#6B6B00E0
(1669735231.525206) vcan0 095#800007F400000017
(1669735231.525222) vcan0 039#001B
(1669735231.525229) vcan0 1A4#000000080000003E
(1669735231.525238) vcan0 1AA#7FFF00000000673F
(1669735231.525245) vcan0 1B0#000F0000000175
(1669735231.525253) vcan0 1D0#000000000000000A
(1669735231.527173) vcan0 166#D0320027
(1669735231.527232) vcan0 244#00000001B2
(1669735231.529111) vcan0 158#0000000000000028
(1669735231.529129) vcan0 161#000005500108002B
(1669735231.529139) vcan0 191#010010A141001A
(1669735231.529148) vcan0 133#00000000B6
(1669735231.529156) vcan0 136#0002000000000039
(1669735231.529164) vcan0 13A#0000000000000037
(1669735231.529172) vcan0 13F#000000050000003D
(1669735231.529180) vcan0 164#0000C01AA8000013
(1669735231.531104) vcan0 17C#0000000010000030
(1669735231.531118) vcan0 18E#00007A
(1669735231.531127) vcan0 294#040B0002CF5A003B
(1669735231.531135) vcan0 21E#03E8374522063E
(1669735231.531142) vcan0 183#0000000B0000103D
(1669735231.533061) vcan0 143#6B6B00FF
(1669735231.534996) vcan0 095#800007F400000026
(1669735231.536662) vcan0 166#D0320036
(1669735231.537935) vcan0 158#0000000000000037
(1669735231.537954) vcan0 161#000005500108003A
(1669735231.537962) vcan0 191#010010A1410029
(1669735231.538928) vcan0 244#0000000101
(1669735231.539846) vcan0 164#0000C01AA8000022
(1669735231.539861) vcan0 133#0000000089
(1669735231.539899) vcan0 136#000200000000000C
(1669735231.539907) vcan0 13A#000000000000000A
(1669735231.539913) vcan0 13F#0000000500000000
(1669735231.539921) vcan0 17C#0000000010000003
(1669735231.539928) vcan0 18E#00004D
(1669735231.539935) vcan0 1CF#80050000002D
(1669735231.539942) vcan0 1DC#0200002A
(1669735231.541679) vcan0 183#0000000800001003
(1669735231.541693) vcan0 143#6B6B00C2
(1669735231.544419) vcan0 095#800007F400000035
(1669735231.544439) vcan0 039#002A
(1669735231.544447) vcan0 1A4#0000000800000001
(1669735231.544454) vcan0 1AA#7FFF000000006801
(1669735231.545723) vcan0 1B0#000F0000000148
(1669735231.545755) vcan0 1D0#000000000000000A
(1669735231.547728) vcan0 166#D0320009
(1669735231.547756) vcan0 158#000000000000000A
(1669735231.547766) vcan0 161#000005500108000D
(1669735231.549086) vcan0 191#010010A1410038
(1669735231.549113) vcan0 133#0000000098
(1669735231.549123) vcan0 136#000200000000001B
(1669735231.549132) vcan0 13A#0000000000000019
(1669735231.549142) vcan0 13F#000000050000001F
(1669735231.549727) vcan0 244#000000017B
(1669735231.550625) vcan0 164#0000C01AA9000030
(1669735231.550638) vcan0 17C#0000000010000012
(1669735231.550643) vcan0 18E#00005C
(1669735231.550651) vcan0 309#00000000000000A2
(1669735231.550656) vcan0 428#01040000521C01
(1669735231.550662) vcan0 405#000004000000000B
(1669735231.552445) vcan0 183#0000000600001014
(1669735231.552471) vcan0 143#6B6B00D1
(1669735231.555532) vcan0 095#800007F400000008
(1669735231.557462) vcan0 166#D0320018
(1669735231.557481) vcan0 305#8026
(1669735231.557499) vcan0 158#0000000000000019
(1669735231.559415) vcan0 161#000005500108001C
(1669735231.559434) vcan0 191#010010A141000B
(1669735231.559442) vcan0 164#0000C01AA8000004
(1669735231.559450) vcan0 133#00000000A7
(1669735231.559457) vcan0 136#000200000000002A
(1669735231.559463) vcan0 13A#0000000000000028
(1669735231.559484) vcan0 13F#000000050000002E
(1669735231.559496) vcan0 17C#0000000010000021
(1669735231.559504) vcan0 18E#00006B
(1669735231.560643) vcan0 1CF#80050000003C
(1669735231.560659) vcan0 1DC#02000039
(1669735231.560666) vcan0 183#0000000C0000102D
(1669735231.560898) vcan0 244#0000000127
(1669735231.561781) vcan0 143#6B6B00E0
(1669735231.564029) vcan0 095#800007F400000017
(1669735231.565153) vcan0 1A4#0000000800000010
(1669735231.565170) vcan0 1AA#7FFF000000006810
(1669735231.565178) vcan0 1B0#000F0000000157
(1669735231.565185) vcan0 039#0039
(1669735231.565194) vcan0 1D0#000000000000000A
(1669735231.568202) vcan0 166#D0320027
(1669735231.568222) vcan0 158#0000000000000028
(1669735231.568227) vcan0 161#000005500108002B
(1669735231.568235) vcan0 191#010010A141001A
(1669735231.568240) vcan0 133#00000000B6
(1669735231.569442) vcan0 136#0002000000000039
(1669735231.569463) vcan0 13A#0000000000000037
(1669735231.569469) vcan0 13F#000000050000003D
(1669735231.569475) vcan0 164#0000C01AA8000013
(1669735231.569480) vcan0 17C#0000000010000030
(1669735231.571144) vcan0 18E#00007A
(1669735231.571166) vcan0 294#040B0002CF5A000E
(1669735231.571173) vcan0 21E#03E83745220601
(1669735231.571178) vcan0 183#000000090000103F
(1669735231.572246) vcan0 143#6B6B00FF
(1669735231.574162) vcan0 244#0000000124
(1669735231.574227) vcan0 095#800007F400000026
(1669735231.577369) vcan0 166#D0320036
(1669735231.578964) vcan0 158#0000000000000037
(1669735231.578996) vcan0 161#000005500108003A
(1669735231.579005) vcan0 191#010010A1410029
(1669735231.579012) vcan0 164#0000C01AA8000022
(1669735231.579018) vcan0 133#0000000089
(1669735231.579023) vcan0 136#000200000000000C
(1669735231.579028) vcan0 13A#000000000000000A
(1669735231.579034) vcan0 039#000C
(1669735231.580888) vcan0 13F#0000000500000000
(1669735231.580914) vcan0 17C#0000000010000003
(1669735231.580920) vcan0 18E#00004D
(1669735231.580925) vcan0 1CF#80050000000F
(1669735231.580930) vcan0 1DC#0200000C
(1669735231.580936) vcan0 183#0000000E0000100D
(1669735231.582897) vcan0 143#6B6B00C2
(1669735231.584776) vcan0 095#800007F400000035
(1669735231.584791) vcan0 1A4#000000080000002F
(1669735231.584796) vcan0 1AA#7FFF000000006720
(1669735231.584802) vcan0 1B0#000F0000000166
(1669735231.585822) vcan0 244#00000001FE
(1669735231.586779) vcan0 1D0#000000000000000A
(1669735231.586806) vcan0 166#D0320009
(1669735231.588723) vcan0 158#000000000000000A
(1669735231.588743) vcan0 161#000005500108000D
(1669735231.588749) vcan0 191#010010A1410038
(1669735231.588754) vcan0 133#0000000098
(1669735231.588759) vcan0 136#000200000000001B
(1669735231.588765) vcan0 13A#0000000000000019
(1669735231.590659) vcan0 13F#000000050000001F
(1669735231.590674) vcan0 164#0000C01AA8000031
(1669735231.590680) vcan0 17C#0000000010000012
(1669735231.590685) vcan0 18E#00005C
(1669735231.592628) vcan0 183#0000000A00001010
(1669735231.592645) vcan0 143#6B6B00D1
(1669735231.594575) vcan0 039#001B
(1669735231.594603) vcan0 095#800007F400000008
(1669735231.596502) vcan0 166#D0320018
(1669735231.597509) vcan0 244#00000001B8
(1669735231.598457) vcan0 158#0000000000000019
(1669735231.598471) vcan0 161#000005500108001C
(1669735231.598476) vcan0 191#010010A141000B
(1669735231.598482) vcan0 164#0000C01AA8000004
(1669735231.598488) vcan0 133#00000000A7
(1669735231.600403) vcan0 136#000200000000002A
(1669735231.600417) vcan0 13A#0000000000000028
(1669735231.600423) vcan0 13F#000000050000002E
(1669735231.600429) vcan0 17C#0000000010000021
(1669735231.600434) vcan0 18E#00006B
(1669735231.600439) vcan0 1CF#80050000001E
(1669735231.600444) vcan0 1DC#0200001B
(1669735231.602325) vcan0 183#0000000700001022
(1669735231.602353) vcan0 143#6B6B00E0
(1669735231.602362) vcan0 333#0000000000002D
(1669735231.604281) vcan0 095#800007F400000017
(1669735231.604303) vcan0 1A4#000000080000003E
(1669735231.606211) vcan0 1AA#7FFF00000000673F
(1669735231.606228) vcan0 1B0#000F0000000175
(1669735231.606234) vcan0 1D0#000000000000000A
(1669735231.606239) vcan0 039#002A
(1669735231.606246) vcan0 166#D0320027
(1669735231.608162) vcan0 158#0000000000000028
(1669735231.608177) vcan0 161#000005500108002B
(1669735231.608183) vcan0 191#010010A141001A
(1669735231.608187) vcan0 133#00000000B6
(1669735231.609207) vcan0 244#000000012C
(1669735231.610178) vcan0 136#0002000000000039
(1669735231.610194) vcan0 13A#0000000000000037
(1669735231.610200) vcan0 13F#000000050000003D
(1669735231.610214) vcan0 164#0000C01AA8000013
(1669735231.610221) vcan0 17C#0000000010000030
(1669735231.610226) vcan0 18E#00007A
(1669735231.610231) vcan0 294#040B0002CF5A001D
(1669735231.610236) vcan0 21E#03E83745220610
(1669735231.612107) vcan0 183#0000000500001033
(1669735231.612123) vcan0 143#6B6B00FF
(1669735231.614084) vcan0 095#800007F400000026
(1669735231.617125) vcan0 166#D0320036
(1669735231.618936) vcan0 158#0000000000000037
(1669735231.618960) vcan0 161#000005500108003A
(1669735231.618971) vcan0 191#010010A1410029
(1669735231.618982) vcan0 164#0000C01AA8000022
(1669735231.618989) vcan0 133#0000000089
(1669735231.618997) vcan0 136#000200000000000C
(1669735231.619009) vcan0 13A#000000000000000A
(1669735231.620888) vcan0 13F#0000000500000000
(1669735231.620905) vcan0 17C#0000000010000003
(1669735231.620911) vcan0 18E#00004D
(1669735231.620917) vcan0 1CF#80050000002D
(1669735231.620923) vcan0 1DC#0200002A
(1669735231.620930) vcan0 320#000021
(1669735231.620937) vcan0 324#7465000000000E29
(1669735231.620942) vcan0 37C#FD00FD00097F0029
(1669735231.620947) vcan0 183#0000000300001008
(1669735231.621004) vcan0 244#00000001FA
(1669735231.622872) vcan0 143#6B6B00C2
(1669735231.624805) vcan0 095#800007F400000035
(1669735231.624824) vcan0 1A4#0000000800000001
(1669735231.624830) vcan0 1AA#7FFF000000006801
(1669735231.624835) vcan0 1B0#000F0000000148
(1669735231.626772) vcan0 1D0#000000000000000A
(1669735231.626785) vcan0 039#0039
(1669735231.626791) vcan0 166#D0320009
(1669735231.628716) vcan0 158#000000000000000A
(1669735231.628734) vcan0 161#000005500108000D
(1669735231.628739) vcan0 191#010010A1410038
(1669735231.628746) vcan0 133#0000000098
(1669735231.628752) vcan0 136#000200000000001B
(1669735231.628759) vcan0 13A#0000000000000019
(1669735231.630652) vcan0 13F#000000050000001F
(1669735231.630688) vcan0 164#0000C01AA8000031
(1669735231.630697) vcan0 17C#0000000010000012
(1669735231.630703) vcan0 18E#00005C
(1669735231.632616) vcan0 183#0000000A00001010
(1669735231.632632) vcan0 143#6B6B00D1
(1669735231.632684) vcan0 244#0000000126
(1669735231.634573) vcan0 095#800007F400000008
(1669735231.636506) vcan0 166#D0320018
(1669735231.638501) vcan0 039#000C
(1669735231.638523) vcan0 158#0000000000000019
(1669735231.638531) vcan0 161#000005500108001C
(1669735231.638542) vcan0 191#010010A141000B
(1669735231.638547) vcan0 164#0000C01AA8000004
(1669735231.638552) vcan0 133#00000000A7
(1669735231.640376) vcan0 136#000200000000002A
(1669735231.640390) vcan0 13A#0000000000000028
(1669735231.640395) vcan0 13F#000000050000002E
(1669735231.640400) vcan0 17C#0000000010000021
(1669735231.640405) vcan0 18E#00006B
(1669735231.640413) vcan0 1CF#80050000003C
(1669735231.640419) vcan0 1DC#02000039
(1669735231.642322) vcan0 183#0000000700001022
(1669735231.642335) vcan0 143#6B6B00E0
(1669735231.644309) vcan0 244#0000000156
(1669735231.645261) vcan0 095#800007F400000017
(1669735231.645275) vcan0 1A4#0000000800000010
(1669735231.645281) vcan0 1AA#7FFF000000006810
(1669735231.645291) vcan0 1B0#000F0000000157
(1669735231.645298) vcan0 1D0#000000000000000A
(1669735231.647325) vcan0 166#D0320027
(1669735231.649196) vcan0 158#0000000000000028
(1669735231.649211) vcan0 161#000005500108002B
(1669735231.649217) vcan0 191#010010A141001A
(1669735231.649224) vcan0 133#00000000B6
(1669735231.649229) vcan0 136#0002000000000039
(1669735231.649237) vcan0 13A#0000000000000037
(1669735231.649243) vcan0 13F#000000050000003D
(1669735231.649249) vcan0 164#0000C01AA8000013
(1669735231.650236) vcan0 188#00000000
(1669735231.650717) vcan0 17C#0000000010000030
(1669735231.650730) vcan0 18E#00007A
(1669735231.650736) vcan0 294#040B0002CF5A002C
(1669735231.650741) vcan0 21E#03E8374522062F
(1669735231.650750) vcan0 309#00000000000000B1
(1669735231.651820) vcan0 039#001B
(1669735231.651834) vcan0 183#0000000500001033
(1669735231.651840) vcan0 143#6B6B00FF
(1669735231.654116) vcan0 095#800007F400000026
(1669735231.655443) vcan0 244#00000001A1
(1669735231.657522) vcan0 166#D0320036
(1669735231.657546) vcan0 158#0000000000000037
(1669735231.659010) vcan0 161#000005500108003A
(1669735231.659027) vcan0 191#010010A1410029
(1669735231.659033) vcan0 164#0000C01AA9000021
(1669735231.659044) vcan0 133#0000000089
(1669735231.659051) vcan0 136#000200000000000C
(1669735231.659057) vcan0 13A#000000000000000A
(1669735231.660905) vcan0 13F#0000000500000000
(1669735231.660921) vcan0 17C#0000000010000003
(1669735231.660936) vcan0 18E#00004D
(1669735231.660943) vcan0 1CF#80050000000F
(1669735231.660948) vcan0 1DC#0200000C
(1669735231.660955) vcan0 183#0000000B00001000
(1669735231.662895) vcan0 143#6B6B00C2
(1669735231.664009) vcan0 095#800007F400000035
(1669735231.664030) vcan0 305#8035
(1669735231.665760) vcan0 1A4#000000080000002F
(1669735231.665777) vcan0 1AA#7FFF000000006720
(1669735231.665783) vcan0 1B0#000F0000000166
(1669735231.665791) vcan0 1D0#000000000000000A
(1669735231.666799) vcan0 244#000000016E
(1669735231.667739) vcan0 166#D0320009
(1669735231.667756) vcan0 158#000000000000000A
(1669735231.667762) vcan0 161#000005500108000D
(1669735231.669438) vcan0 191#010010A1410038
(1669735231.669454) vcan0 133#0000000098
(1669735231.669459) vcan0 136#000200000000001B
(1669735231.669465) vcan0 13A#0000000000000019
(1669735231.669470) vcan0 13F#000000050000001F
(1669735231.669476) vcan0 164#0000C01AA8000031
(1669735231.669481) vcan0 17C#0000000010000012
(1669735231.670679) vcan0 18E#00005C
(1669735231.672654) vcan0 039#002A
(1669735231.672689) vcan0 183#0000000800001012
(1669735231.672698) vcan0 143#6B6B00D1
(1669735231.674689) vcan0 095#800007F400000008
(1669735231.676532) vcan0 166#D0320018
(1669735231.678781) vcan0 158#0000000000000019
(1669735231.678825) vcan0 161#000005500108001C
(1669735231.678831) vcan0 191#010010A141000B
(1669735231.678839) vcan0 164#0000C01AA8000004
(1669735231.678846) vcan0 133#00000000A7
(1669735231.678854) vcan0 136#000200000000002A
(1669735231.678950) vcan0 244#000000012C
(1669735231.680563) vcan0 13A#0000000000000028
(1669735231.680599) vcan0 13F#000000050000002E
(1669735231.680605) vcan0 17C#0000000010000021
(1669735231.680612) vcan0 18E#00006B
(1669735231.680619) vcan0 1CF#80050000001E
(1669735231.680625) vcan0 1DC#0200001B
(1669735231.680632) vcan0 183#0000000600001023
(1669735231.682396) vcan0 143#6B6B00E0
(1669735231.684310) vcan0 095#800007F400000017
(1669735231.684329) vcan0 1A4#000000080000003E
(1669735231.686308) vcan0 1AA#7FFF00000000673F
(1669735231.686335) vcan0 1B0#000F0000000175
(1669735231.686345) vcan0 1D0#000000000000000A
(1669735231.686352) vcan0 039#0039
(1669735231.686359) vcan0 166#D0320027
(1669735231.688536) vcan0 158#0000000000000028
(1669735231.688566) vcan0 161#000005500108002B
(1669735231.688574) vcan0 191#010010A141001A
(1669735231.688583) vcan0 133#00000000B6
(1669735231.688590) vcan0 136#0002000000000039
(1669735231.689454) vcan0 244#00000001D4
(1669735231.689929) vcan0 13A#0000000000000037
(1669735231.689947) vcan0 13F#000000050000003D
(1669735231.689955) vcan0 164#0000C01AA8000013
(1669735231.689964) vcan0 17C#0000000010000030
(1669735231.689974) vcan0 18E#00007A
(1669735231.689981) vcan0 294#040B0002CF5A003B
(1669735231.691137) vcan0 21E#03E8374522063E
(1669735231.691155) vcan0 183#0000000C0000103C
(1669735231.692258) vcan0 143#6B6B00FF
(1669735231.694496) vcan0 095#800007F800000022
(1669735231.698011) vcan0 166#D0320036
(1669735231.698034) vcan0 158#0000000000000037
(1669735231.698042) vcan0 161#000005500108003A
(1669735231.698049) vcan0 191#010010A1410029
(1669735231.700113) vcan0 164#0000C01AA8000022
(1669735231.700135) vcan0 133#0000000089
(1669735231.700144) vcan0 039#000C
(1669735231.700151) vcan0 136#000200000000000C
(1669735231.700160) vcan0 13A#000000000000000A
(1669735231.700167) vcan0 13F#0000000500000000
(1669735231.700174) vcan0 17C#0000000010000003
(1669735231.700181) vcan0 18E#00004D
(1669735231.700189) vcan0 1CF#80050000002D
(1669735231.700196) vcan0 1DC#0200002A
(1669735231.700978) vcan0 244#00000001CA
(1669735231.701912) vcan0 183#0000000900001002
(1669735231.701928) vcan0 143#6B6B00C2
(1669735231.703859) vcan0 333#0000000000003C
(1669735231.703882) vcan0 095#800007F800000031
(1669735231.705818) vcan0 1A4#0000000800000001
(1669735231.705835) vcan0 1AA#7FFF000000006801
(1669735231.705844) vcan0 1B0#000F0000000148
(1669735231.705852) vcan0 1D0#000000000000000A
(1669735231.707771) vcan0 166#D0320009
(1669735231.707788) vcan0 158#000000000000000A
(1669735231.707796) vcan0 161#000005500108000D
(1669735231.709714) vcan0 191#010010A1410038
(1669735231.709730) vcan0 133#0000000098
(1669735231.709739) vcan0 136#000200000000001B
(1669735231.709746) vcan0 13A#0000000000000019
(1669735231.709754) vcan0 13F#000000050000001F
(1669735231.709761) vcan0 164#0000C01AA8000031
(1669735231.709780) vcan0 17C#0000000010000012
(1669735231.709788) vcan0 18E#00005C
(1669735231.711682) vcan0 183#0000000E0000101C
(1669735231.711697) vcan0 143#6B6B00D1
(1669735231.712645) vcan0 244#000000016C
(1669735231.713624) vcan0 039#001B
(1669735231.713641) vcan0 095#800007F800000004
(1669735231.717517) vcan0 166#D0320018
(1669735231.717534) vcan0 158#0000000000000019
(1669735231.719490) vcan0 161#000005500108001C
(1669735231.719506) vcan0 191#010090A1410003
(1669735231.719514) vcan0 133#00000000A7
(1669735231.719522) vcan0 136#000200000000002A
(1669735231.719529) vcan0 13A#0000000000000028
(1669735231.719535) vcan0 13F#000000050000002E
(1669735231.719542) vcan0 164#0000C01AA8000004
(1669735231.719551) vcan0 17C#0000000010000021
(1669735231.719558) vcan0 18E#00006B
(1669735231.721523) vcan0 1CF#80050000003C
(1669735231.721542) vcan0 1DC#02000039
(1669735231.721550) vcan0 320#000030
(1669735231.721557) vcan0 324#7465000000000E38
(1669735231.721565) vcan0 37C#FD00FD00097F0038
(1669735231.721573) vcan0 183#0000000A0000102F
(1669735231.723452) vcan0 143#6B6B00E0
(1669735231.723470) vcan0 095#800007F800000013
(1669735231.724460) vcan0 244#00000001A3
(1669735231.725413) vcan0 1A4#0000000800000010
(1669735231.725428) vcan0 1AA#7FFF000000006810
(1669735231.725436) vcan0 1B0#000F0000000157
(1669735231.725443) vcan0 1D0#000000000000000A
(1669735231.727358) vcan0 039#002A
(1669735231.727372) vcan0 166#D0320027
(1669735231.729298) vcan0 158#0000000000000028
(1669735231.729312) vcan0 161#000005500108002B
(1669735231.729320) vcan0 191#010090A1410012
(1669735231.729327) vcan0 133#00000000B6
(1669735231.729334) vcan0 136#0002000000000039
(1669735231.729340) vcan0 13A#0000000000000037
(1669735231.729347) vcan0 13F#000000050000003D
(1669735231.729355) vcan0 164#0000C01AA9000012
(1669735231.731265) vcan0 17C#0000000010000030
(1669735231.731280) vcan0 18E#00007A
(1669735231.731287) vcan0 294#040B0002CF5A000E
(1669735231.731295) vcan0 21E#03E83745220601
(1669735231.731302) vcan0 183#0000000F00001039
(1669735231.733261) vcan0 143#6B6B00FF
(1669735231.735185) vcan0 095#800007F800000022
(1669735231.736166) vcan0 244#000000012B
(1669735231.737084) vcan0 166#D0320036
(1669735231.739109) vcan0 158#0000000000000037
(1669735231.739131) vcan0 161#000005500108003A
(1669735231.739141) vcan0 191#010090A1410021
(1669735231.739150) vcan0 164#0000C01AA8000022
(1669735231.739158) vcan0 133#0000000089
(1669735231.739166) vcan0 136#000200000000000C
(1669735231.739177) vcan0 13A#000000000000000A
(1669735231.739187) vcan0 13F#0000000500000000
(1669735231.741059) vcan0 17C#0000000010000003
(1669735231.741081) vcan0 18E#00004D
(1669735231.741089) vcan0 1CF#80050000000F
(1669735231.741098) vcan0 1DC#0200000C
(1669735231.741107) vcan0 183#0000001300001007
(1669735231.741114) vcan0 039#0039
(1669735231.743004) vcan0 143#6B6B00C2
(1669735231.744931) vcan0 095#800007F400000035
(1669735231.744947) vcan0 1A4#000000080000002F
(1669735231.744954) vcan0 1AA#7FFF000000006720
(1669735231.744960) vcan0 1B0#000F0000000166
(1669735231.744965) vcan0 1D0#000000000000000A
(1669735231.746878) vcan0 166#D0320009
(1669735231.747881) vcan0 244#0000000154
(1669735231.748840) vcan0 158#000000000000000A
(1669735231.748855) vcan0 161#000005500108000D
(1669735231.748862) vcan0 191#010090A1410030
(1669735231.748868) vcan0 133#0000000098
(1669735231.748873) vcan0 136#000200000000001B
(1669735231.748878) vcan0 13A#0000000000000019
(1669735231.750800) vcan0 13F#000000050000001F
(1669735231.750816) vcan0 164#0000C01AA8000031
(1669735231.750822) vcan0 17C#0000000010000012
(1669735231.750827) vcan0 18E#00005C
(1669735231.750833) vcan0 309#0000000000000084
(1669735231.751990) vcan0 183#0000000E0000101C
(1669735231.752002) vcan0 143#6B6B00D1
(1669735231.754295) vcan0 095#800007F400000008
(1669735231.755471) vcan0 039#000C
(1669735231.756729) vcan0 166#D0320018
(1669735231.758202) vcan0 158#0000000000000019
(1669735231.758216) vcan0 161#000005500108001C
(1669735231.758223) vcan0 191#010090A1410003
(1669735231.758230) vcan0 164#0000C01AA8000004
(1669735231.758634) vcan0 244#0000000183
(1669735231.759685) vcan0 133#00000000A7
(1669735231.759699) vcan0 136#000200000000002A
(1669735231.759705) vcan0 13A#0000000000000028
(1669735231.759711) vcan0 13F#000000050000002E
(1669735231.759721) vcan0 17C#0000000010000021
(1669735231.759727) vcan0 18E#00006B
(1669735231.759733) vcan0 1CF#80050000001E
(1669735231.760766) vcan0 1DC#0200001B
(1669735231.760788) vcan0 183#0000000A0000102F
(1669735231.761840) vcan0 143#6B6B00E0
(1669735231.763561) vcan0 095#800007F400000017
(1669735231.765386) vcan0 1A4#000000080000003E
(1669735231.765404) vcan0 1AA#7FFF00000000673F
(1669735231.765410) vcan0 1B0#000F0000000175
(1669735231.765415) vcan0 1D0#000000000000000A
(1669735231.767306) vcan0 166#D0320027
(1669735231.768468) vcan0 158#0000000000000028
(1669735231.768482) vcan0 161#000005500108002B
(1669735231.768488) vcan0 191#010090A1410012
(1669735231.768493) vcan0 133#00000000B6
(1669735231.768498) vcan0 136#0002000000000039
(1669735231.770465) vcan0 244#0000000111
(1669735231.770496) vcan0 039#001B
(1669735231.770510) vcan0 13A#0000000000000037
(1669735231.770516) vcan0 13F#000000050000003D
(1669735231.770522) vcan0 164#0000C01AA8000013
(1669735231.770527) vcan0 17C#0000000010000030
(1669735231.770533) vcan0 18E#00007A
(1669735231.770539) vcan0 294#040B0002CF5A001D
(1669735231.770544) vcan0 305#8008
(1669735231.770550) vcan0 21E#03E83745220610
(1669735231.772222) vcan0 183#0000000700001031
(1669735231.772245) vcan0 143#6B6B00FF
(1669735231.774229) vcan0 095#800007F400000026
(1669735231.774256) vcan0 5A1#960000000000622F
(1669735231.778123) vcan0 166#D0320036
(1669735231.778187) vcan0 158#0000000000000037
(1669735231.778193) vcan0 161#000005500108003A
(1669735231.778198) vcan0 191#010090A1410021
(1669735231.778204) vcan0 133#0000000089
(1669735231.780142) vcan0 136#000200000000000C
(1669735231.780174) vcan0 13A#000000000000000A
(1669735231.780181) vcan0 13F#0000000500000000
(1669735231.780188) vcan0 164#0000C01AA8000022
(1669735231.780193) vcan0 17C#0000000010000003
(1669735231.780198) vcan0 18E#00004D
(1669735231.780204) vcan0 1CF#80050000002D
(1669735231.780211) vcan0 1DC#0200002A
(1669735231.782050) vcan0 244#0000000198
(1669735231.782084) vcan0 183#0000000500001006
(1669735231.782096) vcan0 143#6B6B00C2
(1669735231.782101) vcan0 039#002A
(1669735231.784115) vcan0 095#800007F400000035
(1669735231.785903) vcan0 1A4#0000000800000001
(1669735231.785921) vcan0 1AA#7FFF000000006801
(1669735231.785927) vcan0 1B0#000F0000000148
(1669735231.785933) vcan0 1D0#000000000000000A
(1669735231.787845) vcan0 166#D0320009
(1669735231.787882) vcan0 158#000000000000000A
(1669735231.787887) vcan0 161#000005500108000D
(1669735231.787892) vcan0 191#010090A1410030
(1669735231.789783) vcan0 133#0000000098
(1669735231.789800) vcan0 136#000200000000001B
(1669735231.789805) vcan0 13A#0000000000000019
(1669735231.789810) vcan0 13F#000000050000001F
(1669735231.789816) vcan0 164#0000C01AA8000031
(1669735231.789821) vcan0 17C#0000000010000012
(1669735231.789826) vcan0 18E#00005C
(1669735231.791729) vcan0 183#0000000B0000101F
(1669735231.791743) vcan0 143#6B6B00D1
(1669735231.793742) vcan0 095#800007F400000008
(1669735231.793798) vcan0 244#0000000102
(1669735231.795670) vcan0 039#0039
(1669735231.797621) vcan0 166#D0320018
(1669735231.797634) vcan0 158#0000000000000019
(1669735231.799589) vcan0 161#000005500108001C
(1669735231.799604) vcan0 191#010090A1410003
(1669735231.799612) vcan0 133#00000000A7
(1669735231.799617) vcan0 136#000200000000002A
(1669735231.799624) vcan0 13A#0000000000000028
(1669735231.799629) vcan0 13F#000000050000002E
(1669735231.799636) vcan0 164#0000C01AA8000004
(1669735231.799641) vcan0 17C#0000000010000021
(1669735231.799645) vcan0 18E#00006B
(1669735231.801532) vcan0 1CF#80050000003C
(1669735231.801546) vcan0 1DC#02000039
(1669735231.801553) vcan0 183#0000000800001021
(1669735231.801583) vcan0 143#6B6B00E0
(1669735231.803485) vcan0 333#0000000000000F
(1669735231.803507) vcan0 095#800007F400000017
(1669735231.805430) vcan0 1A4#0000000800000010
(1669735231.805444) vcan0 1AA#7FFF000000006810
(1669735231.805451) vcan0 1B0#000F0000000157
(1669735231.805457) vcan0 1D0#000000000000000A
(1669735231.805511) vcan0 244#0000000117
(1669735231.807416) vcan0 166#D0320027
(1669735231.809332) vcan0 158#0000000000000028
(1669735231.809344) vcan0 161#000005500108002B
(1669735231.809350) vcan0 191#010090A1410012
(1669735231.809356) vcan0 133#00000000B6
(1669735231.809363) vcan0 136#0002000000000039
(1669735231.809368) vcan0 13A#0000000000000037
(1669735231.809373) vcan0 13F#000000050000003D
(1669735231.809379) vcan0 164#0000C01AA8000013
(1669735231.809384) vcan0 17C#0000000010000030
(1669735231.811260) vcan0 18E#00007A
(1669735231.811283) vcan0 294#040B0002CF5A002C
(1669735231.811289) vcan0 21E#03E8374522062F
(1669735231.811295) vcan0 183#0000000D0000103B
(1669735231.813237) vcan0 143#6B6B00FF
(1669735231.815192) vcan0 095#800007F400000026
(1669735231.815205) vcan0 039#000C
(1669735231.817157) vcan0 166#D0320036
(1669735231.817211) vcan0 244#00000001D2
(1669735231.819122) vcan0 158#0000000000000037
(1669735231.819139) vcan0 161#000005500108003A
(1669735231.819145) vcan0 191#010090A1410021
(1669735231.819151) vcan0 133#0000000089
(1669735231.819156) vcan0 136#000200000000000C
(1669735231.819161) vcan0 13A#000000000000000A
(1669735231.819167) vcan0 13F#0000000500000000
(1669735231.819172) vcan0 164#0000C01AA8000022
(1669735231.820651) vcan0 17C#0000000010000003
(1669735231.820670) vcan0 18E#00004D
(1669735231.820677) vcan0 1CF#80050000000F
(1669735231.820683) vcan0 1DC#0200000C
(1669735231.820688) vcan0 320#000003
(1669735231.820695) vcan0 324#7465000000000E0B
(1669735231.820702) vcan0 37C#FD00FD00097F000B
(1669735231.822616) vcan0 183#0000000900001002
(1669735231.822633) vcan0 40C#033133383439000D
(1669735231.822647) vcan0 454#23EF09
(1669735231.822653) vcan0 143#6B6B00C2
(1669735231.824533) vcan0 095#800007F400000035
(1669735231.824546) vcan0 1A4#000000080000002F
(1669735231.824552) vcan0 1AA#7FFF000000006720
(1669735231.826505) vcan0 1B0#000F0000000166
(1669735231.826520) vcan0 1D0#000000000000000A
(1669735231.826525) vcan0 166#D0320009
(1669735231.828432) vcan0 158#000000000000000A
(1669735231.828451) vcan0 161#000005500108000D
(1669735231.828460) vcan0 191#010090A1410030
(1669735231.828465) vcan0 18E#00005C
(1669735231.828470) vcan0 133#0000000098
(1669735231.828531) vcan0 244#00000001C0
(1669735231.830396) vcan0 136#000200000000001B
(1669735231.830410) vcan0 13A#0000000000000019
(1669735231.830416) vcan0 039#001B
(1669735231.830423) vcan0 13F#000000050000001F
(1669735231.830429) vcan0 164#0000C01AA8000031
(1669735231.830435) vcan0 17C#0000000010000012
(1669735231.832350) vcan0 183#0000000600001014
(1669735231.832363) vcan0 143#6B6B00D1
(1669735231.834302) vcan0 095#800007F400000008
(1669735231.836228) vcan0 166#D0320018
(1669735231.838238) vcan0 158#0000000000000019
(1669735231.838261) vcan0 161#000005500108001C
(1669735231.838268) vcan0 191#010090A1410003
(1669735231.838273) vcan0 164#0000C01AA8000004
(1669735231.839468) vcan0 133#00000000A7
(1669735231.839482) vcan0 136#000200000000002A
(1669735231.839488) vcan0 13A#0000000000000028
(1669735231.839494) vcan0 13F#000000050000002E
(1669735231.839500) vcan0 17C#0000000010000021
(1669735231.839505) vcan0 18E#00006B
(1669735231.839591) vcan0 244#0000000111
(1669735231.840558) vcan0 1CF#80050000001E
(1669735231.840574) vcan0 1DC#0200001B
(1669735231.841678) vcan0 183#0000000C0000102D
(1669735231.841691) vcan0 143#6B6B00E0
(1669735231.845405) vcan0 095#800007F400000017
(1669735231.845429) vcan0 039#002A
(1669735231.845437) vcan0 1A4#000000080000003E
(1669735231.845442) vcan0 1AA#7FFF00000000673F
(1669735231.845448) vcan0 1B0#000F0000000175
(1669735231.845454) vcan0 1D0#000000000000000A
(1669735231.846503) vcan0 166#D0320027
(1669735231.847636) vcan0 158#0000000000000028
(1669735231.848756) vcan0 161#000005500108002B
(1669735231.848772) vcan0 191#010090A1410012
(1669735231.848778) vcan0 133#00000000B6
(1669735231.848783) vcan0 136#0002000000000039
(1669735231.848789) vcan0 13A#0000000000000037
(1669735231.849925) vcan0 13F#000000050000003D
(1669735231.849945) vcan0 164#0000C01AA8000013
(1669735231.849952) vcan0 17C#0000000010000030
(1669735231.849959) vcan0 18E#00007A
(1669735231.849965) vcan0 294#040B0002CF5A003B
(1669735231.850921) vcan0 244#0000000157
(1669735231.851892) vcan0 21E#03E8374522063E
(1669735231.851909) vcan0 309#0000000000000093
(1669735231.851915) vcan0 428#01040000521C10
(1669735231.851920) vcan0 405#000004000000001A
(1669735231.851926) vcan0 183#000000090000103F
(1669735231.851932) vcan0 143#6B6B00FF
(1669735231.853821) vcan0 095#800007F400000026
(1669735231.856790) vcan0 166#D0320036
(1669735231.858757) vcan0 158#0000000000000037
(1669735231.858785) vcan0 161#000005500108003A
(1669735231.858793) vcan0 191#010090A1410021
(1669735231.858798) vcan0 039#0039
(1669735231.858804) vcan0 133#0000000089
(1669735231.858811) vcan0 136#000200000000000C
(1669735231.858816) vcan0 13A#000000000000000A
(1669735231.860746) vcan0 13F#0000000500000000
(1669735231.860795) vcan0 164#0000C01AA8000022
(1669735231.860803) vcan0 17C#0000000010000003
(1669735231.860808) vcan0 18E#00004D
(1669735231.860814) vcan0 1CF#80050000002D
(1669735231.860819) vcan0 1DC#0200002A
(1669735231.860826) vcan0 183#0000000E0000100D
(1669735231.862723) vcan0 143#6B6B00C2
(1669735231.862791) vcan0 244#0000000157
(1669735231.864660) vcan0 095#800007F400000035
(1669735231.864680) vcan0 1A4#0000000800000001
(1669735231.864689) vcan0 1AA#7FFF000000006801
(1669735231.864694) vcan0 1B0#000F0000000148
(1669735231.866535) vcan0 1D0#000000000000000A
(1669735231.866550) vcan0 166#D0320009
(1669735231.868468) vcan0 158#000000000000000A
(1669735231.868484) vcan0 161#000005500108000D
(1669735231.868491) vcan0 191#010090A1410030
(1669735231.868496) vcan0 133#0000000098
(1669735231.868501) vcan0 136#000200000000001B
(1669735231.870413) vcan0 13A#0000000000000019
(1669735231.870433) vcan0 13F#000000050000001F
(1669735231.870440) vcan0 164#0000C01AA8000031
(1669735231.870446) vcan0 17C#0000000010000012
(1669735231.870451) vcan0 18E#00005C
(1669735231.872358) vcan0 183#0000000A00001010
(1669735231.872379) vcan0 039#000C
(1669735231.872384) vcan0 143#6B6B00D1
(1669735231.872390) vcan0 305#8017
(1669735231.874313) vcan0 095#800007F400000008
(1669735231.874381) vcan0 244#0000000178
(1669735231.876284) vcan0 166#D0320018
(1669735231.878210) vcan0 158#0000000000000019
(1669735231.878226) vcan0 161#000005500108001C
(1669735231.878231) vcan0 191#010090A1410003
(1669735231.878236) vcan0 133#00000000A7
(1669735231.880178) vcan0 136#000200000000002A
(1669735231.880195) vcan0 13A#0000000000000028
(1669735231.880201) vcan0 13F#000000050000002E
(1669735231.880206) vcan0 164#0000C01AA8000004
(1669735231.880212) vcan0 17C#0000000010000021
(1669735231.880217) vcan0 18E#00006B
(1669735231.880223) vcan0 1CF#80050000003C
(1669735231.880228) vcan0 1DC#02000039
(1669735231.882141) vcan0 183#0000000700001022
(1669735231.882160) vcan0 143#6B6B00E0
(1669735231.884078) vcan0 095#800007F400000017
(1669735231.886003) vcan0 1A4#0000000800000010
(1669735231.886019) vcan0 1AA#7FFF000000006810
(1669735231.886024) vcan0 1B0#000F0000000157
(1669735231.886030) vcan0 1D0#000000000000000A
(1669735231.886072) vcan0 244#00000001A6
(1669735231.887999) vcan0 166#D0320027
(1669735231.888017) vcan0 158#0000000000000028
(1669735231.888023) vcan0 161#000005500108002B
(1669735231.888028) vcan0 191#010090A1410012
(1669735231.889927) vcan0 133#00000000B6
(1669735231.889941) vcan0 136#0002000000000039
(1669735231.889946) vcan0 039#001B
(1669735231.889952) vcan0 13A#0000000000000037
(1669735231.889957) vcan0 13F#000000050000003D
(1669735231.889962) vcan0 164#0000C01AA8000013
(1669735231.889968) vcan0 17C#0000000010000030
(1669735231.889973) vcan0 18E#00007A
(1669735231.889978) vcan0 294#040B0002CF5A000E
(1669735231.891884) vcan0 21E#03E83745220601
(1669735231.891897) vcan0 183#0000000D0000103B
(1669735231.891903) vcan0 143#6B6B00FF
(1669735231.893832) vcan0 095#800007F400000026
(1669735231.897738) vcan0 166#D0320036
(1669735231.897753) vcan0 158#0000000000000037
(1669735231.897759) vcan0 161#000005500108003A
(1669735231.897802) vcan0 244#00000001F6
(1669735231.899689) vcan0 191#010090A1410021
(1669735231.899703) vcan0 164#0000C01AA8000022
(1669735231.899710) vcan0 133#0000000089
(1669735231.899717) vcan0 136#000200000000000C
(1669735231.899723) vcan0 13A#000000000000000A
(1669735231.899728) vcan0 13F#0000000500000000
(1669735231.899733) vcan0 17C#0000000010000003
(1669735231.899738) vcan0 18E#00004D
(1669735231.899743) vcan0 1CF#80050000000F
(1669735231.901643) vcan0 1DC#0200000C
(1669735231.901656) vcan0 183#0000000900001002
(1669735231.901662) vcan0 039#002A
(1669735231.901668) vcan0 143#6B6B00C2
(1669735231.903587) vcan0 333#0000000000001E
(1669735231.903605) vcan0 095#800007F400000035
(1669735231.905518) vcan0 1A4#000000080000002F
(1669735231.905535) vcan0 1AA#7FFF000000006720
(1669735231.905542) vcan0 1B0#000F0000000166
(1669735231.905549) vcan0 1D0#000000000000000A
(1669735231.907469) vcan0 166#D0320009
(1669735231.907484) vcan0 158#000000000000000A
(1669735231.909458) vcan0 161#000005500108000D
(1669735231.909474) vcan0 191#010090A1410030
(1669735231.909481) vcan0 133#0000000098
(1669735231.909486) vcan0 136#000200000000001B
(1669735231.909507) vcan0 13A#0000000000000019
(1669735231.909512) vcan0 13F#000000050000001F
(1669735231.909527) vcan0 164#0000C01AA8000031
(1669735231.909533) vcan0 17C#0000000010000012
(1669735231.909538) vcan0 18E#00005C
(1669735231.909584) vcan0 244#000000010E
(1669735231.911399) vcan0 183#0000000600001014
(1669735231.913408) vcan0 143#6B6B00D1
(1669735231.915314) vcan0 095#800007F400000008
(1669735231.917265) vcan0 166#D0320018
(1669735231.919183) vcan0 158#0000000000000019
(1669735231.919197) vcan0 161#000005500108001C
(1669735231.919203) vcan0 191#010090A1410003
(1669735231.919209) vcan0 164#0000C01AA8000004
(1669735231.919214) vcan0 133#00000000A7
(1669735231.919220) vcan0 136#000200000000002A
(1669735231.919225) vcan0 13A#0000000000000028
(1669735231.919235) vcan0 13F#000000050000002E
(1669735231.921200) vcan0 17C#0000000010000021
(1669735231.921220) vcan0 18E#00006B
(1669735231.921225) vcan0 1CF#80050000001E
(1669735231.921232) vcan0 1DC#0200001B
(1669735231.921237) vcan0 320#000012
(1669735231.921243) vcan0 324#7465000000000E1A
(1669735231.921249) vcan0 37C#FD00FD00097F001A
(1669735231.921260) vcan0 039#0039
(1669735231.921265) vcan0 183#0000000C0000102D
(1669735231.921328) vcan0 244#00000001EA
(1669735231.923148) vcan0 143#6B6B00E0
(1669735231.925073) vcan0 095#800007F400000017
(1669735231.925087) vcan0 1A4#000000080000003E
(1669735231.925094) vcan0 1AA#7FFF00000000673F
(1669735231.925100) vcan0 1B0#000F0000000175
(1669735231.925110) vcan0 1D0#000000000000000A
(1669735231.926270) vcan0 166#D0320027
(1669735231.928503) vcan0 158#0000000000000028
(1669735231.928539) vcan0 161#000005500108002B
(1669735231.928551) vcan0 191#010090A1410012
(1669735231.928558) vcan0 133#00000000B6
(1669735231.928563) vcan0 136#0002000000000039
(1669735231.929680) vcan0 13A#0000000000000037
(1669735231.929698) vcan0 13F#000000050000003D
(1669735231.929705) vcan0 164#0000C01AA9000012
(1669735231.929711) vcan0 17C#0000000010000030
(1669735231.929717) vcan0 18E#00007A
(1669735231.932309) vcan0 294#040B0002CF5A001D
(1669735231.932328) vcan0 21E#03E83745220610
(1669735231.932334) vcan0 183#000000090000103F
(1669735231.932340) vcan0 143#6B6B00FF
(1669735231.932402) vcan0 244#0000000136
(1669735231.933571) vcan0 039#000C
(1669735231.933589) vcan0 095#800007F400000026
(1669735231.936996) vcan0 166#D0320036
(1669735231.938144) vcan0 158#0000000000000037
(1669735231.938169) vcan0 161#000005500108003A
(1669735231.938180) vcan0 191#010090A1410021
(1669735231.938188) vcan0 164#0000C01AA9000021
(1669735231.939301) vcan0 133#0000000089
(1669735231.939317) vcan0 136#000200000000000C
(1669735231.939324) vcan0 13A#000000000000000A
(1669735231.939330) vcan0 13F#0000000500000000
(1669735231.939335) vcan0 17C#0000000010000003
(1669735231.940494) vcan0 18E#00004D
(1669735231.940524) vcan0 1CF#80050000002D
(1669735231.940532) vcan0 1DC#0200002A
(1669735231.941688) vcan0 183#0000000E0000100D
(1669735231.941741) vcan0 143#6B6B00C2
(1669735231.943646) vcan0 095#800007F400000035
(1669735231.944931) vcan0 1A4#0000000800000001
(1669735231.944946) vcan0 1AA#7FFF000000006801
(1669735231.944952) vcan0 1B0#000F0000000148
(1669735231.944957) vcan0 1D0#000000000000000A
(1669735231.946401) vcan0 166#D0320009
(1669735231.947521) vcan0 158#000000000000000A
(1669735231.948531) vcan0 244#00000001A9
(1669735231.949464) vcan0 161#000005500108000D
(1669735231.949478) vcan0 191#010090A1410030
(1669735231.949483) vcan0 039#001B
(1669735231.949489) vcan0 133#0000000098
(1669735231.949494) vcan0 136#000200000000001B
(1669735231.949499) vcan0 13A#0000000000000019
(1669735231.949504) vcan0 13F#000000050000001F
(1669735231.949510) vcan0 164#0000C01AA8000031
(1669735231.949516) vcan0 17C#0000000010000012
(1669735231.951427) vcan0 18E#00005C
(1669735231.951441) vcan0 309#00000000000000A2
(1669735231.951447) vcan0 183#0000000A00001010
(1669735231.953557) vcan0 143#6B6B00D1
(1669735231.953593) vcan0 095#800007F400000008
(1669735231.957340) vcan0 166#D0320018
(1669735231.959223) vcan0 158#0000000000000019
(1669735231.959244) vcan0 161#000005500108001C
(1669735231.959250) vcan0 191#010090A1410003
(1669735231.959255) vcan0 133#00000000A7
(1669735231.959267) vcan0 136#000200000000002A
(1669735231.959272) vcan0 13A#0000000000000028
(1669735231.959277) vcan0 13F#000000050000002E
(1669735231.959283) vcan0 164#0000C01AA8000004
(1669735231.960208) vcan0 244#000000013E
(1669735231.961894) vcan0 17C#0000000010000021
(1669735231.961924) vcan0 18E#00006B
(1669735231.961938) vcan0 1CF#80050000003C
(1669735231.961943) vcan0 1DC#02000039
(1669735231.961949) vcan0 183#0000000700001022
(1669735231.961954) vcan0 143#6B6B00E0
(1669735231.963158) vcan0 039#002A
(1669735231.965078) vcan0 095#800007F400000017
(1669735231.965100) vcan0 1A4#0000000800000010
(1669735231.965106) vcan0 1AA#7FFF000000006810
(1669735231.965111) vcan0 1B0#000F0000000157
(1669735231.965117) vcan0 1D0#000000000000000A
(1669735231.967020) vcan0 166#D0320027
(1669735231.968951) vcan0 158#0000000000000028
(1669735231.968978) vcan0 161#000005500108002B
(1669735231.968986) vcan0 191#010090A1410012
(1669735231.968996) vcan0 133#00000000B6
(1669735231.969007) vcan0 136#0002000000000039
(1669735231.969016) vcan0 13A#0000000000000037
(1669735231.969028) vcan0 13F#000000050000003D
(1669735231.970965) vcan0 164#0000C01AA8000013
(1669735231.971009) vcan0 17C#0000000010000030
(1669735231.971017) vcan0 18E#00007A
(1669735231.971024) vcan0 294#040B0002CF5A002C
(1669735231.971034) vcan0 21E#03E8374522062F
(1669735231.971950) vcan0 244#0000000100
(1669735231.972911) vcan0 183#0000000500001033
(1669735231.972925) vcan0 143#6B6B00FF
(1669735231.974834) vcan0 095#800007F400000026
(1669735231.976777) vcan0 166#D0320036
(1669735231.978745) vcan0 039#0039
(1669735231.978769) vcan0 158#0000000000000037
(1669735231.978776) vcan0 161#000005500108003A
(1669735231.978782) vcan0 191#010090A1410021
(1669735231.978787) vcan0 305#8026
(1669735231.978792) vcan0 133#0000000089
(1669735231.978798) vcan0 136#000200000000000C
(1669735231.978803) vcan0 13A#000000000000000A
(1669735231.980666) vcan0 13F#0000000500000000
(1669735231.980678) vcan0 164#0000C01AA8000022
(1669735231.980684) vcan0 17C#0000000010000003
(1669735231.980689) vcan0 18E#00004D
(1669735231.980694) vcan0 1CF#80050000000F
(1669735231.980699) vcan0 1DC#0200000C
(1669735231.980705) vcan0 183#0000000300001008
(1669735231.982619) vcan0 143#6B6B00C2
(1669735231.983683) vcan0 244#00000001BF
(1669735231.983703) vcan0 095#800007F400000035
(1669735231.985555) vcan0 1A4#000000080000002F
(1669735231.985571) vcan0 1AA#7FFF000000006720
(1669735231.985583) vcan0 1B0#000F0000000166
(1669735231.985595) vcan0 1D0#000000000000000A
(1669735231.987563) vcan0 166#D0320009
(1669735231.987595) vcan0 158#000000000000000A
(1669735231.989487) vcan0 161#000005500108000D
(1669735231.989507) vcan0 191#010090A1410030
(1669735231.989515) vcan0 133#0000000098
(1669735231.989521) vcan0 136#000200000000001B
(1669735231.989527) vcan0 13A#0000000000000019
(1669735231.989533) vcan0 13F#000000050000001F
(1669735231.989540) vcan0 164#0000C01AA8000031
(1669735231.989546) vcan0 17C#0000000010000012
(1669735231.989552) vcan0 18E#00005C
(1669735231.991496) vcan0 039#000C
(1669735231.991513) vcan0 183#0000000A00001010
(1669735231.992778) vcan0 143#6B6B00D1
(1669735231.994343) vcan0 095#800007F400000008
(1669735231.995355) vcan0 244#0000000181
(1669735231.996299) vcan0 166#D0320018
(1669735231.998252) vcan0 158#0000000000000019
(1669735231.998271) vcan0 161#000005500108001C
(1669735231.998279) vcan0 191#010090A1410003
(1669735231.998286) vcan0 133#00000000A7
(1669735232.000236) vcan0 136#000200000000002A
(1669735232.000253) vcan0 13A#0000000000000028
(1669735232.000259) vcan0 13F#000000050000002E
(1669735232.000267) vcan0 164#0000C01AA8000004
(1669735232.000274) vcan0 17C#0000000010000021
(1669735232.000281) vcan0 18E#00006B
(1669735232.000289) vcan0 1CF#80050000001E
(1669735232.000296) vcan0 1DC#0200001B
(1669735232.002478) vcan0 183#0000000700001022
(1669735232.002505) vcan0 143#6B6B00E0
(1669735232.002515) vcan0 333#0000000000002D
(1669735232.004161) vcan0 095#800007F400000017
(1669735232.006132) vcan0 1A4#000000080000003E
(1669735232.006159) vcan0 1AA#7FFF00000000673F
(1669735232.006172) vcan0 1B0#000F0000000175
(1669735232.006183) vcan0 1D0#000000000000000A
(1669735232.006195) vcan0 039#001B
(1669735232.006206) vcan0 166#D0320027
(1669735232.006294) vcan0 244#0000000173
(1669735232.008051) vcan0 158#0000000000000028
(1669735232.008074) vcan0 161#000005500108002B
(1669735232.008084) vcan0 191#010090A1410012
(1669735232.009969) vcan0 133#00000000B6
(1669735232.010026) vcan0 136#0002000000000039
(1669735232.010040) vcan0 13A#0000000000000037
(1669735232.010051) vcan0 13F#000000050000003D
(1669735232.010062) vcan0 164#0000C01AA8000013
(1669735232.010073) vcan0 17C#0000000010000030
(1669735232.010095) vcan0 18E#00007A
(1669735232.010106) vcan0 294#040B0002CF5A003B
(1669735232.010115) vcan0 21E#03E8374522063E
(1669735232.011932) vcan0 183#0000000500001033
(1669735232.011953) vcan0 143#6B6B00FF
(1669735232.013939) vcan0 095#800007F400000026
(1669735232.017839) vcan0 166#D0320036
(1669735232.017860) vcan0 158#0000000000000037
(1669735232.017872) vcan0 161#000005500108003A
(1669735232.017928) vcan0 244#00000001FC
(1669735232.019783) vcan0 191#010010A1410029
(1669735232.019815) vcan0 133#0000000089
(1669735232.019834) vcan0 136#000200000000000C
(1669735232.019843) vcan0 13A#000000000000000A
(1669735232.019853) vcan0 13F#0000000500000000
(1669735232.019863) vcan0 164#0000C01AA8000022
(1669735232.019872) vcan0 17C#0000000010000003
(1669735232.019879) vcan0 18E#00004D
(1669735232.019887) vcan0 1CF#80050000002D
(1669735232.019896) vcan0 1DC#0200002A
(1669735232.020944) vcan0 320#000021
(1669735232.020961) vcan0 324#7465000000000E29
(1669735232.020967) vcan0 37C#FD00FD00097F0029
(1669735232.020973) vcan0 183#0000000B00001000
(1669735232.022067) vcan0 143#6B6B00C2
(1669735232.024471) vcan0 095#800007F400000035
(1669735232.024487) vcan0 1A4#0000000800000001
(1669735232.024493) vcan0 1AA#7FFF000000006801
(1669735232.025774) vcan0 1B0#000F0000000148
(1669735232.025791) vcan0 1D0#000000000000000A
(1669735232.025799) vcan0 039#002A
(1669735232.027480) vcan0 166#D0320009
(1669735232.027498) vcan0 158#000000000000000A
(1669735232.028305) vcan0 244#000000018C
(1669735232.029127) vcan0 161#000005500108000D
(1669735232.029145) vcan0 191#010010A1410038
(1669735232.029151) vcan0 133#0000000098
(1669735232.029157) vcan0 136#000200000000001B
(1669735232.029163) vcan0 13A#0000000000000019
(1669735232.029172) vcan0 13F#000000050000001F
(1669735232.029177) vcan0 164#0000C01AA8000031
(1669735232.030216) vcan0 17C#0000000010000012
(1669735232.030233) vcan0 18E#00005C
(1669735232.032025) vcan0 183#0000000800001012
(1669735232.032041) vcan0 143#6B6B00D1
(1669735232.033973) vcan0 095#800007F400000008
(1669735232.037923) vcan0 166#D0320018
(1669735232.037955) vcan0 158#0000000000000019
(1669735232.037962) vcan0 161#000005500108001C
(1669735232.037968) vcan0 191#010010A141000B
(1669735232.039898) vcan0 039#0039
(1669735232.039925) vcan0 133#00000000A7
(1669735232.039931) vcan0 136#000200000000002A
(1669735232.039938) vcan0 13A#0000000000000028
(1669735232.039944) vcan0 13F#000000050000002E
(1669735232.039951) vcan0 164#0000C01AA8000004
(1669735232.039956) vcan0 17C#0000000010000021
(1669735232.039963) vcan0 18E#00006B
(1669735232.039969) vcan0 1CF#80050000003C
(1669735232.039975) vcan0 1DC#02000039
(1669735232.040047) vcan0 244#00000001BB
(1669735232.041799) vcan0 183#0000000D0000102C
(1669735232.041818) vcan0 143#6B6B00E0
(1669735232.043736) vcan0 095#800007F400000017
(1669735232.045673) vcan0 1A4#0000000800000010
(1669735232.045689) vcan0 1AA#7FFF000000006810
(1669735232.045695) vcan0 1B0#000F0000000157
(1669735232.045701) vcan0 1D0#000000000000000A
(1669735232.047664) vcan0 166#D0320027
(1669735232.047680) vcan0 158#0000000000000028
(1669735232.047686) vcan0 161#000005500108002B
(1669735232.049587) vcan0 191#010010A141001A
(1669735232.049604) vcan0 133#00000000B6
(1669735232.049609) vcan0 136#0002000000000039
(1669735232.049614) vcan0 13A#0000000000000037
(1669735232.049620) vcan0 13F#000000050000003D
(1669735232.049625) vcan0 164#0000C01AA8000013
(1669735232.049630) vcan0 17C#0000000010000030
(1669735232.049635) vcan0 18E#00007A
(1669735232.051561) vcan0 294#040B0002CF5A000E
(1669735232.051577) vcan0 21E#03E83745220601
(1669735232.051582) vcan0 309#00000000000000B1
(1669735232.051587) vcan0 183#0000001100001036
(1669735232.051593) vcan0 143#6B6B00FF
(1669735232.051640) vcan0 244#00000001EC
(1669735232.053505) vcan0 039#000C
(1669735232.055512) vcan0 095#800007F400000026
(1669735232.057434) vcan0 166#D0320036
(1669735232.057464) vcan0 158#0000000000000037
(1669735232.059390) vcan0 161#000005500108003A
(1669735232.059409) vcan0 191#010010A1410029
(1669735232.059415) vcan0 164#0000C01AA8000022
(1669735232.059420) vcan0 133#0000000089
(1669735232.059427) vcan0 136#000200000000000C
(1669735232.059432) vcan0 13A#000000000000000A
(1669735232.059437) vcan0 13F#0000000500000000
(1669735232.059442) vcan0 17C#0000000010000003
(1669735232.061454) vcan0 18E#00004D
(1669735232.061474) vcan0 1CF#80050000000F
(1669735232.061488) vcan0 1DC#0200000C
(1669735232.061493) vcan0 183#0000000C0000100F
(1669735232.063298) vcan0 143#6B6B00C2
(1669735232.063376) vcan0 244#0000000172
(1669735232.065195) vcan0 095#800007F400000035
(1669735232.065208) vcan0 1A4#000000080000002F
(1669735232.065214) vcan0 1AA#7FFF000000006720
(1669735232.065219) vcan0 1B0#000F0000000166
(1669735232.065225) vcan0 1D0#000000000000000A
(1669735232.067213) vcan0 166#D0320009
(1669735232.069145) vcan0 158#000000000000000A
(1669735232.069164) vcan0 161#000005500108000D
(1669735232.069173) vcan0 191#010010A1410038
(1669735232.069180) vcan0 039#001B
(1669735232.069188) vcan0 133#0000000098
(1669735232.069197) vcan0 136#000200000000001B
(1669735232.069205) vcan0 13A#0000000000000019
(1669735232.069214) vcan0 13F#000000050000001F
(1669735232.069222) vcan0 164#0000C01AA8000031
(1669735232.070270) vcan0 17C#0000000010000012
(1669735232.070289) vcan0 18E#00005C
(1669735232.072064) vcan0 183#0000001000001019
(1669735232.072083) vcan0 143#6B6B00D1
(1669735232.073991) vcan0 095#800007F400000008
(1669735232.075030) vcan0 244#0000000142
(1669735232.077896) vcan0 166#D0320018
(1669735232.077918) vcan0 158#0000000000000019
(1669735232.077931) vcan0 161#000005500108001C
(1669735232.077939) vcan0 191#010010A141000B
(1669735232.079850) vcan0 133#00000000A7
(1669735232.079867) vcan0 136#000200000000002A
(1669735232.079877) vcan0 13A#0000000000000028
(1669735232.079885) vcan0 13F#000000050000002E
(1669735232.079895) vcan0 164#0000C01AA8000004
(1669735232.079903) vcan0 17C#0000000010000021
(1669735232.079910) vcan0 18E#00006B
(1669735232.079918) vcan0 1CF#80050000001E
(1669735232.079925) vcan0 1DC#0200001B
(1669735232.081805) vcan0 183#0000000C0000102D
(1669735232.081821) vcan0 143#6B6B00E0
(1669735232.083751) vcan0 039#002A
(1669735232.083767) vcan0 305#8035
(1669735232.083777) vcan0 095#800007F400000017
(1669735232.085682) vcan0 1A4#000000080000003E
(1669735232.085699) vcan0 1AA#7FFF00000000673F
(1669735232.085707) vcan0 1B0#000F0000000175
(1669735232.085714) vcan0 1D0#000000000000000A
(1669735232.086696) vcan0 244#000000012C
(1669735232.087667) vcan0 166#D0320027
(1669735232.087687) vcan0 158#0000000000000028
(1669735232.087697) vcan0 161#000005500108002B
(1669735232.089601) vcan0 191#010010A141001A
(1669735232.089618) vcan0 133#00000000B6
(1669735232.089625) vcan0 136#0002000000000039
(1669735232.089633) vcan0 13A#0000000000000037
(1669735232.089642) vcan0 13F#000000050000003D
(1669735232.089649) vcan0 164#0000C01AA8000013
(1669735232.089657) vcan0 17C#0000000010000030
(1669735232.089665) vcan0 18E#00007A
(1669735232.091563) vcan0 294#040B0002CF5A001D
(1669735232.091579) vcan0 21E#03E83745220610
(1669735232.091587) vcan0 183#000000090000103F
(1669735232.091594) vcan0 143#6B6B00FF
(1669735232.095465) vcan0 095#800007F400000026
(1669735232.097407) vcan0 166#D0320036
(1669735232.097423) vcan0 039#0039
(1669735232.098420) vcan0 244#0000000139
(1669735232.099393) vcan0 158#0000000000000037
(1669735232.099413) vcan0 161#000005500108003A
(1669735232.099422) vcan0 191#010010A1410029
(1669735232.099432) vcan0 133#0000000089
(1669735232.099442) vcan0 136#000200000000000C
(1669735232.099450) vcan0 13A#000000000000000A
(1669735232.099459) vcan0 13F#0000000500000000
(1669735232.099467) vcan0 164#0000C01AA9000021
(1669735232.099484) vcan0 17C#0000000010000003
(1669735232.099492) vcan0 18E#00004D
(1669735232.101325) vcan0 1CF#80050000002D
(1669735232.101343) vcan0 1DC#0200002A
(1669735232.101352) vcan0 183#0000000E0000100D
(1669735232.103265) vcan0 143#6B6B00C2
(1669735232.103287) vcan0 333#0000000000003C
(1669735232.105235) vcan0 095#800007F400000035
(1669735232.105265) vcan0 1A4#0000000800000001
(1669735232.105277) vcan0 1AA#7FFF000000006801
(1669735232.105286) vcan0 1B0#000F0000000148
(1669735232.105295) vcan0 1D0#000000000000000A
(1669735232.107204) vcan0 166#D0320009
(1669735232.109134) vcan0 158#000000000000000A
(1669735232.109154) vcan0 161#000005500108000D
(1669735232.109163) vcan0 191#010010A1410038
(1669735232.109177) vcan0 133#0000000098
(1669735232.109187) vcan0 136#000200000000001B
(1669735232.109197) vcan0 13A#0000000000000019
(1669735232.109206) vcan0 13F#000000050000001F
(1669735232.109215) vcan0 164#0000C01AA8000031
(1669735232.110147) vcan0 244#0000000133
(1669735232.111092) vcan0 17C#0000000010000012
(1669735232.111109) vcan0 18E#00005C
(1669735232.111121) vcan0 039#000C
(1669735232.113048) vcan0 183#0000000A00001010
(1669735232.113067) vcan0 143#6B6B00D1
(1669735232.114522) vcan0 095#800007F400000008
(1669735232.116721) vcan0 166#D0320018
(1669735232.117878) vcan0 158#0000000000000019
(1669735232.117919) vcan0 161#000005500108001C
(1669735232.117929) vcan0 191#010010A141000B
(1669735232.119045) vcan0 133#00000000A7
(1669735232.119061) vcan0 136#000200000000002A
(1669735232.119068) vcan0 13A#0000000000000028
(1669735232.119075) vcan0 13F#000000050000002E
(1669735232.120237) vcan0 164#0000C01AA8000004
(1669735232.120255) vcan0 17C#0000000010000021
(1669735232.120260) vcan0 18E#00006B
(1669735232.120267) vcan0 1CF#80050000003C
(1669735232.120277) vcan0 1DC#02000039
(1669735232.120282) vcan0 320#000030
(1669735232.120287) vcan0 324#7465000000000E38
(1669735232.122039) vcan0 244#00000001CB
(1669735232.122081) vcan0 37C#FD00FD00097F0038
(1669735232.122095) vcan0 40C#0000000004000013
(1669735232.122108) vcan0 183#0000000F0000102A
(1669735232.122115) vcan0 454#23EF18
(1669735232.122120) vcan0 143#6B6B00E0
(1669735232.124207) vcan0 095#800007F400000017
(1669735232.124224) vcan0 1A4#0000000800000010
(1669735232.125769) vcan0 1AA#7FFF000000006810
(1669735232.125786) vcan0 1B0#000F0000000157
(1669735232.125792) vcan0 1D0#000000000000000A
(1669735232.127720) vcan0 166#D0320027
(1669735232.127736) vcan0 158#0000000000000028
(1669735232.127742) vcan0 161#000005500108002B
(1669735232.129694) vcan0 191#010010A141001A
(1669735232.129713) vcan0 133#00000000B6
(1669735232.129720) vcan0 136#0002000000000039
(1669735232.129726) vcan0 13A#0000000000000037
(1669735232.129733) vcan0 13F#000000050000003D
(1669735232.129738) vcan0 164#0000C01AA9000012
(1669735232.129743) vcan0 17C#0000000010000030
(1669735232.129750) vcan0 18E#00007A
(1669735232.129756) vcan0 294#040B0002CF5A002C
(1669735232.131701) vcan0 039#001B
(1669735232.131716) vcan0 21E#03E8374522062F
(1669735232.131723) vcan0 183#0000001300001034
(1669735232.131729) vcan0 143#6B6B00FF
(1669735232.133608) vcan0 244#00000001E8
(1669735232.135518) vcan0 095#800007F400000026
(1669735232.137514) vcan0 166#D0320036
(1669735232.137540) vcan0 158#0000000000000037
(1669735232.138618) vcan0 161#000005500108003A
(1669735232.138638) vcan0 191#010010A1410029
(1669735232.138645) vcan0 164#0000C01AA8000022
(1669735232.138654) vcan0 133#0000000089
(1669735232.138662) vcan0 136#000200000000000C
(1669735232.140502) vcan0 13A#000000000000000A
(1669735232.140534) vcan0 13F#0000000500000000
(1669735232.140542) vcan0 17C#0000000010000003
(1669735232.140552) vcan0 18E#00004D
(1669735232.140560) vcan0 1CF#80050000000F
(1669735232.140570) vcan0 1DC#0200000C
(1669735232.142651) vcan0 183#0000000E0000100D
(1669735232.142686) vcan0 143#6B6B00C2
(1669735232.144354) vcan0 095#800007F400000035
(1669735232.144387) vcan0 1A4#000000080000002F
(1669735232.145459) vcan0 244#00000001E8
(1669735232.146323) vcan0 1AA#7FFF000000006720
(1669735232.146353) vcan0 1B0#000F0000000166
(1669735232.146362) vcan0 1D0#000000000000000A
(1669735232.146371) vcan0 166#D0320009
(1669735232.148219) vcan0 158#000000000000000A
(1669735232.148237) vcan0 161#000005500108000D
(1669735232.148247) vcan0 191#010010A1410038
(1669735232.148257) vcan0 133#0000000098
(1669735232.150178) vcan0 136#000200000000001B
(1669735232.150197) vcan0 13A#0000000000000019
(1669735232.150205) vcan0 13F#000000050000001F
(1669735232.150212) vcan0 164#0000C01AA8000031
(1669735232.150220) vcan0 17C#0000000010000012
(1669735232.150227) vcan0 18E#00005C
(1669735232.150234) vcan0 309#0000000000000084
(1669735232.150242) vcan0 428#01040000521C2F
(1669735232.151240) vcan0 188#00000000
(1669735232.152525) vcan0 405#0000040000000029
(1669735232.152545) vcan0 039#002A
(1669735232.152553) vcan0 183#0000001200001017
(1669735232.152560) vcan0 143#6B6B00D1
(1669735232.154089) vcan0 095#800007F400000008
(1669735232.157073) vcan0 244#00000001EA
(1669735232.159088) vcan0 166#D0320018
(1669735232.159108) vcan0 158#0000000000000019
(1669735232.159115) vcan0 161#000005500108001C
(1669735232.159122) vcan0 191#010010A141000B
(1669735232.159131) vcan0 164#0000C01AA8000004
(1669735232.159138) vcan0 133#00000000A7
(1669735232.159145) vcan0 136#000200000000002A
(1669735232.159153) vcan0 13A#0000000000000028
(1669735232.159163) vcan0 13F#000000050000002E
(1669735232.160906) vcan0 17C#0000000010000021
(1669735232.160925) vcan0 18E#00006B
(1669735232.160942) vcan0 1CF#80050000001E
(1669735232.160949) vcan0 1DC#0200001B
(1669735232.160957) vcan0 183#0000000D0000102C
(1669735232.162878) vcan0 143#6B6B00E0
(1669735232.164805) vcan0 095#800007F400000017
(1669735232.164854) vcan0 039#0039
(1669735232.164862) vcan0 1A4#000000080000003E
(1669735232.164869) vcan0 1AA#7FFF00000000683E
(1669735232.164877) vcan0 1B0#000F0000000175
(1669735232.166793) vcan0 1D0#000000000000000A
(1669735232.166810) vcan0 166#D0320027
(1669735232.168738) vcan0 158#0000000000000028
(1669735232.168757) vcan0 161#000005500108002B
(1669735232.168764) vcan0 191#010010A141001A
(1669735232.168770) vcan0 133#00000000B6
(1669735232.168778) vcan0 136#0002000000000039
(1669735232.168785) vcan0 13A#0000000000000037
(1669735232.168836) vcan0 244#000000011B
(1669735232.170657) vcan0 13F#000000050000003D
(1669735232.170680) vcan0 164#0000C01AA8000013
(1669735232.170687) vcan0 17C#0000000010000030
(1669735232.170694) vcan0 18E#00007A
(1669735232.170703) vcan0 294#040B0002CF5A003B
(1669735232.170710) vcan0 21E#03E8374522063E
(1669735232.172607) vcan0 183#000000090000103F
(1669735232.172628) vcan0 143#6B6B00FF
(1669735232.174568) vcan0 095#800007F400000026
(1669735232.176531) vcan0 166#D0320036
(1669735232.178478) vcan0 158#0000000000000037
(1669735232.178494) vcan0 161#000005500108003A
(1669735232.178502) vcan0 191#010010A1410029
(1669735232.178510) vcan0 164#0000C01AA8000022
(1669735232.178517) vcan0 133#0000000089
(1669735232.180415) vcan0 136#000200000000000C
(1669735232.180455) vcan0 13A#000000000000000A
(1669735232.180464) vcan0 13F#0000000500000000
(1669735232.180471) vcan0 17C#0000000010000003
(1669735232.180479) vcan0 18E#00004D
(1669735232.180485) vcan0 039#000C
(1669735232.180491) vcan0 1CF#80050000002D
(1669735232.180498) vcan0 1DC#0200002A
(1669735232.180560) vcan0 244#00000001D6
(1669735232.182399) vcan0 183#0000000E0000100D
(1669735232.182416) vcan0 143#6B6B00C2
(1669735232.184330) vcan0 095#800007F400000035
(1669735232.184347) vcan0 1A4#0000000800000001
(1669735232.186240) vcan0 1AA#7FFF000000006801
(1669735232.186256) vcan0 1B0#000F0000000148
(1669735232.186263) vcan0 1D0#000000000000000A
(1669735232.186270) vcan0 166#D0320009
(1669735232.188232) vcan0 305#8008
(1669735232.188249) vcan0 158#000000000000000A
(1669735232.188257) vcan0 161#000005500108000D
(1669735232.188265) vcan0 191#010010A1410038
(1669735232.188295) vcan0 133#0000000098
(1669735232.190176) vcan0 136#000200000000001B
(1669735232.190190) vcan0 13A#0000000000000019
(1669735232.190197) vcan0 13F#000000050000001F
(1669735232.190204) vcan0 164#0000C01AA8000031
(1669735232.190210) vcan0 17C#0000000010000012
(1669735232.190218) vcan0 18E#00005C
(1669735232.192130) vcan0 183#0000000A00001010
(1669735232.192145) vcan0 143#6B6B00D1
(1669735232.192202) vcan0 244#0000000146
(1669735232.194099) vcan0 095#800007F400000008
(1669735232.194115) vcan0 039#001B
(1669735232.198004) vcan0 166#D0320018
(1669735232.198021) vcan0 158#0000000000000019
(1669735232.198028) vcan0 161#000005500108001C
(1669735232.198036) vcan0 191#010010A141000B
(1669735232.199936) vcan0 133#00000000A7
(1669735232.199950) vcan0 136#000200000000002A
(1669735232.199956) vcan0 13A#0000000000000028
(1669735232.199963) vcan0 13F#000000050000002E
(1669735232.199970) vcan0 164#0000C01AA8000004
(1669735232.199977) vcan0 17C#0000000010000021
(1669735232.199984) vcan0 18E#00006B
(1669735232.199991) vcan0 1CF#80050000003C
(1669735232.199998) vcan0 1DC#02000039
(1669735232.201903) vcan0 183#0000000F0000102A
(1669735232.201917) vcan0 143#6B6B00E0
(1669735232.203861) vcan0 333#0000000000000F
(1669735232.203887) vcan0 095#800007F400000017
(1669735232.203961) vcan0 244#00000001C9
(1669735232.205809) vcan0 1A4#0000000800000010
(1669735232.205829) vcan0 1AA#7FFF000000006810
(1669735232.205838) vcan0 1B0#000F0000000157
(1669735232.205847) vcan0 1D0#000000000000000A
(1669735232.207759) vcan0 166#D0320027
(1669735232.207781) vcan0 158#0000000000000028
(1669735232.207789) vcan0 161#000005500108002B
(1669735232.209716) vcan0 191#010010A141001A
(1669735232.209736) vcan0 133#00000000B6
(1669735232.209745) vcan0 136#0002000000000039
(1669735232.209755) vcan0 13A#0000000000000037
(1669735232.209763) vcan0 13F#000000050000003D
(1669735232.209772) vcan0 164#0000C01AA8000013
(1669735232.209784) vcan0 17C#0000000010000030
(1669735232.209794) vcan0 18E#00007A
(1669735232.209815) vcan0 294#040B0002CF5A000E
(1669735232.211673) vcan0 21E#03E83745220601
(1669735232.211694) vcan0 183#0000000B0000103D
(1669735232.211703) vcan0 143#6B6B00FF
(1669735232.215582) vcan0 095#800007F400000026
(1669735232.215600) vcan0 039#002A
(1669735232.215666) vcan0 244#00000001CA
(1669735232.217089) vcan0 166#D0320036
(1669735232.218147) vcan0 158#0000000000000037
(1669735232.218162) vcan0 161#000005500108003A
(1669735232.218169) vcan0 191#010010A1410029
(1669735232.218176) vcan0 133#0000000089
(1669735232.219234) vcan0 136#000200000000000C
(1669735232.219252) vcan0 13A#000000000000000A
(1669735232.219262) vcan0 13F#0000000500000000
(1669735232.219268) vcan0 164#0000C01AA8000022
(1669735232.220423) vcan0 17C#0000000010000003
(1669735232.220440) vcan0 18E#00004D
(1669735232.220446) vcan0 1CF#80050000000F
(1669735232.220452) vcan0 1DC#0200000C
(1669735232.220457) vcan0 320#000003
(1669735232.220462) vcan0 324#7465000000000E0B
(1669735232.221569) vcan0 37C#FD00FD00097F000B
(1669735232.221607) vcan0 183#0000000800001003
(1669735232.223604) vcan0 143#6B6B00C2
(1669735232.224797) vcan0 095#800007F400000035
(1669735232.224814) vcan0 1A4#000000080000002F
(1669735232.224822) vcan0 1AA#7FFF000000006720
(1669735232.224827) vcan0 1B0#000F0000000166
(1669735232.225998) vcan0 1D0#000000000000000A
(1669735232.227850) vcan0 166#D0320009
(1669735232.227866) vcan0 039#0039
(1669735232.227873) vcan0 158#000000000000000A
(1669735232.227878) vcan0 161#000005500108000D
(1669735232.229800) vcan0 191#010010A1410038
(1669735232.229815) vcan0 133#0000000098
(1669735232.229820) vcan0 136#000200000000001B
(1669735232.229826) vcan0 13A#0000000000000019
(1669735232.229832) vcan0 13F#000000050000001F
(1669735232.229838) vcan0 164#0000C01AA8000031
(1669735232.229844) vcan0 17C#0000000010000012
(1669735232.229849) vcan0 18E#00005C
(1669735232.231779) vcan0 244#00000001BA
(1669735232.232733) vcan0 183#0000000D0000101D
(1669735232.232769) vcan0 143#6B6B00D1
(1669735232.234696) vcan0 095#800007F400000008
(1669735232.236644) vcan0 166#D0320018
(1669735232.238576) vcan0 158#0000000000000019
(1669735232.238597) vcan0 161#000005500108001C
(1669735232.238606) vcan0 191#010010A141000B
(1669735232.238614) vcan0 164#0000C01AA9000003
(1669735232.238621) vcan0 133#00000000A7
(1669735232.238628) vcan0 136#000200000000002A
(1669735232.240628) vcan0 13A#0000000000000028
(1669735232.240656) vcan0 13F#000000050000002E
(1669735232.240663) vcan0 17C#0000000010000021
(1669735232.240670) vcan0 18E#00006B
(1669735232.240675) vcan0 1CF#80050000001E
(1669735232.240680) vcan0 1DC#0200001B
(1669735232.240685) vcan0 039#000C
(1669735232.240691) vcan0 183#0000000900001020
(1669735232.242563) vcan0 143#6B6B00E0
(1669735232.243517) vcan0 244#000000015C
(1669735232.245580) vcan0 095#800007F400000017
(1669735232.245611) vcan0 1A4#000000080000003E
(1669735232.245617) vcan0 1AA#7FFF00000000683E
(1669735232.245623) vcan0 1B0#000F0000000175
(1669735232.245631) vcan0 1D0#000000000000000A
(1669735232.247358) vcan0 166#D0320027
(1669735232.249326) vcan0 158#0000000000000028
(1669735232.249343) vcan0 161#000005500108002B
(1669735232.249349) vcan0 191#010010A141001A
(1669735232.249355) vcan0 133#00000000B6
(1669735232.249361) vcan0 136#0002000000000039
(1669735232.249365) vcan0 13A#0000000000000037
(1669735232.249371) vcan0 13F#000000050000003D
(1669735232.249378) vcan0 164#0000C01AA8000013
(1669735232.249383) vcan0 17C#0000000010000030
(1669735232.251308) vcan0 18E#00007A
(1669735232.251327) vcan0 294#040B0002CF5A001D
(1669735232.251333) vcan0 21E#03E83745220610
(1669735232.251339) vcan0 309#0000000000000093
(1669735232.251346) vcan0 183#0000000E0000103A
(1669735232.253241) vcan0 143#6B6B00FF
(1669735232.255237) vcan0 095#800007F400000026
(1669735232.255315) vcan0 244#000000018D
(1669735232.257148) vcan0 039#001B
(1669735232.257167) vcan0 166#D0320036
(1669735232.259108) vcan0 158#0000000000000037
(1669735232.259129) vcan0 161#000005500108003A
(1669735232.259136) vcan0 191#010010A1410029
(1669735232.259144) vcan0 133#0000000089
(1669735232.259151) vcan0 136#000200000000000C
(1669735232.259157) vcan0 13A#000000000000000A
(1669735232.259165) vcan0 13F#0000000500000000
(1669735232.259172) vcan0 164#0000C01AA8000022
(1669735232.261035) vcan0 17C#0000000010000003
(1669735232.261056) vcan0 18E#00004D
(1669735232.261062) vcan0 1CF#80050000002D
(1669735232.261078) vcan0 1DC#0200002A
(1669735232.261085) vcan0 183#0000000A00001001
(1669735232.262995) vcan0 143#6B6B00C2
(1669735232.265028) vcan0 095#800007F400000035
(1669735232.265064) vcan0 1A4#0000000800000001
(1669735232.265074) vcan0 1AA#7FFF000000006801
(1669735232.265084) vcan0 1B0#000F0000000148
(1669735232.265093) vcan0 1D0#000000000000000A
(1669735232.266925) vcan0 166#D0320009
(1669735232.266998) vcan0 244#000000014C
(1669735232.268853) vcan0 158#000000000000000A
(1669735232.268875) vcan0 161#000005500108000D
(1669735232.268885) vcan0 191#010010A1410038
(1669735232.268893) vcan0 133#0000000098
(1669735232.268903) vcan0 136#000200000000001B
(1669735232.268912) vcan0 13A#0000000000000019
(1669735232.268921) vcan0 13F#000000050000001F
(1669735232.270822) vcan0 164#0000C01AA8000031
(1669735232.270849) vcan0 17C#0000000010000012
(1669735232.270858) vcan0 18E#00005C
(1669735232.270864) vcan0 039#002A
(1669735232.272790) vcan0 183#0000000700001013
(1669735232.272809) vcan0 143#6B6B00D1
(1669735232.274715) vcan0 095#800007F400000008
(1669735232.276653) vcan0 166#D0320018
(1669735232.278615) vcan0 158#0000000000000019
(1669735232.278632) vcan0 161#000005500108001C
(1669735232.278640) vcan0 191#010010A141000B
(1669735232.278646) vcan0 164#0000C01AA8000004
(1669735232.278653) vcan0 133#00000000A7
(1669735232.278659) vcan0 136#000200000000002A
(1669735232.278715) vcan0 244#0000000107
(1669735232.280560) vcan0 13A#0000000000000028
(1669735232.280576) vcan0 13F#000000050000002E
(1669735232.280584) vcan0 17C#0000000010000021
(1669735232.280591) vcan0 18E#00006B
(1669735232.280598) vcan0 1CF#80050000003C
(1669735232.280603) vcan0 1DC#02000039
(1669735232.282546) vcan0 183#0000000D0000102C
(1669735232.282566) vcan0 143#6B6B00E0
(1669735232.284487) vcan0 095#800007F400000017
(1669735232.284505) vcan0 039#0039
(1669735232.284515) vcan0 1A4#0000000800000010
(1669735232.284522) vcan0 1AA#7FFF000000006810
(1669735232.286414) vcan0 1B0#000F0000000157
(1669735232.286440) vcan0 1D0#000000000000000A
(1669735232.286451) vcan0 166#D0320027
(1669735232.288349) vcan0 158#0000000000000028
(1669735232.288370) vcan0 161#000005500108002B
(1669735232.288378) vcan0 191#010010A141001A
(1669735232.288386) vcan0 133#00000000B6
(1669735232.288393) vcan0 136#0002000000000039
(1669735232.290331) vcan0 13A#0000000000000037
(1669735232.290353) vcan0 13F#000000050000003D
(1669735232.290359) vcan0 164#0000C01AA8000013
(1669735232.290366) vcan0 17C#0000000010000030
(1669735232.290373) vcan0 18E#00007A
(1669735232.290380) vcan0 294#040B0002CF5A002C
(1669735232.290388) vcan0 21E#03E8374522062F
(1669735232.290453) vcan0 244#0000000193
(1669735232.292260) vcan0 305#8017
(1669735232.292281) vcan0 183#000000090000103F
(1669735232.292288) vcan0 143#6B6B00FF
(1669735232.294188) vcan0 095#800007F400000026
(1669735232.296444) vcan0 166#D0320036
(1669735232.298154) vcan0 158#0000000000000037
(1669735232.298181) vcan0 161#000005500108003A
(1669735232.298188) vcan0 191#010010A1410029
(1669735232.298196) vcan0 039#000C
(1669735232.300106) vcan0 133#0000000089
(1669735232.300122) vcan0 136#000200000000000C
(1669735232.300129) vcan0 13A#000000000000000A
(1669735232.300138) vcan0 13F#0000000500000000
(1669735232.300144) vcan0 164#0000C01AA8000022
(1669735232.300151) vcan0 17C#0000000010000003
(1669735232.300158) vcan0 18E#00004D
(1669735232.300164) vcan0 1CF#80050000000F
(1669735232.300170) vcan0 1DC#0200000C
(1669735232.302033) vcan0 183#0000000600001005
(1669735232.302049) vcan0 143#6B6B00C2
(1669735232.302110) vcan0 244#00000001A0
(1669735232.303259) vcan0 333#0000000000001E
(1669735232.304965) vcan0 095#800007F400000035
(1669735232.304989) vcan0 1A4#000000080000002F
(1669735232.304996) vcan0 1AA#7FFF000000006720
(1669735232.305003) vcan0 1B0#000F0000000166
(1669735232.305009) vcan0 1D0#000000000000000A
(1669735232.306951) vcan0 166#D0320009
(1669735232.308869) vcan0 158#000000000000000A
(1669735232.308893) vcan0 161#000005500108000D
(1669735232.308900) vcan0 191#010010A1410038
(1669735232.308907) vcan0 133#0000000098
(1669735232.308914) vcan0 136#000200000000001B
(1669735232.308920) vcan0 13A#0000000000000019
(1669735232.308926) vcan0 13F#000000050000001F
(1669735232.310820) vcan0 164#0000C01AA8000031
(1669735232.310834) vcan0 17C#0000000010000012
(1669735232.310844) vcan0 18E#00005C
(1669735232.312785) vcan0 183#0000000C0000101E
(1669735232.312800) vcan0 143#6B6B00D1
(1669735232.313833) vcan0 244#00000001CD
(1669735232.314766) vcan0 095#800007F400000008
(1669735232.316972) vcan0 166#D0320018
(1669735232.318113) vcan0 158#0000000000000019
(1669735232.318129) vcan0 161#000005500108001C
(1669735232.318141) vcan0 191#010090A1410003
(1669735232.318147) vcan0 039#001B
(1669735232.319340) vcan0 133#00000000A7
(1669735232.319369) vcan0 136#000200000000002A
(1669735232.319381) vcan0 13A#0000000000000028
(1669735232.319391) vcan0 13F#000000050000002E
(1669735232.319401) vcan0 164#0000C01AA8000004
(1669735232.320716) vcan0 17C#0000000010000021
(1669735232.320739) vcan0 18E#00006B
(1669735232.320747) vcan0 1CF#80050000001E
(1669735232.320754) vcan0 1DC#0200001B
(1669735232.320770) vcan0 320#000012
(1669735232.320777) vcan0 324#7465000000000E1A
(1669735232.320784) vcan0 37C#FD00FD00097F001A
(1669735232.323623) vcan0 183#0000000900001020
(1669735232.323655) vcan0 143#6B6B00E0
(1669735232.325626) vcan0 095#800007F400000017
(1669735232.325647) vcan0 1A4#000000080000003E
(1669735232.325655) vcan0 1AA#7FFF00000000683E
(1669735232.325666) vcan0 1B0#000F0000000175
(1669735232.325674) vcan0 1D0#000000000000000A
(1669735232.327442) vcan0 166#D0320027
(1669735232.327460) vcan0 158#0000000000000028
(1669735232.329398) vcan0 161#000005500108002B
(1669735232.329417) vcan0 191#010090A1410012
(1669735232.329425) vcan0 133#00000000B6
(1669735232.329433) vcan0 136#0002000000000039
(1669735232.329445) vcan0 13A#0000000000000037
(1669735232.329451) vcan0 13F#000000050000003D
(1669735232.329457) vcan0 164#0000C01AA8000013
(1669735232.329463) vcan0 17C#0000000010000030
(1669735232.331360) vcan0 18E#00007A
(1669735232.331380) vcan0 294#040B0002CF5A003B
(1669735232.331387) vcan0 21E#03E8374522063E
(1669735232.331393) vcan0 039#002A
(1669735232.331400) vcan0 183#0000000E0000103A
(1669735232.333004) vcan0 244#000000016E
(1669735232.333314) vcan0 143#6B6B00FF
(1669735232.335231) vcan0 095#800007F400000026
(1669735232.336832) vcan0 166#D0320036
(1669735232.338114) vcan0 158#0000000000000037
(1669735232.338134) vcan0 161#000005500108003A
(1669735232.338141) vcan0 191#010090A1410021
(1669735232.338149) vcan0 133#0000000089
(1669735232.340147) vcan0 136#000200000000000C
(1669735232.340185) vcan0 13A#000000000000000A
(1669735232.340191) vcan0 13F#0000000500000000
(1669735232.340198) vcan0 164#0000C01AA8000022
(1669735232.340205) vcan0 17C#0000000010000003
(1669735232.340210) vcan0 18E#00004D
(1669735232.340219) vcan0 1CF#80050000002D
(1669735232.340226) vcan0 1DC#0200002A
(1669735232.342273) vcan0 183#0000000A00001001
(1669735232.342304) vcan0 143#6B6B00C2
(1669735232.343999) vcan0 095#800007F400000035
(1669735232.345917) vcan0 1A4#0000000800000001
(1669735232.345935) vcan0 1AA#7FFF000000006801
(1669735232.345943) vcan0 1B0#000F0000000148
(1669735232.345950) vcan0 1D0#000000000000000A
(1669735232.345956) vcan0 039#0039
(1669735232.347873) vcan0 166#D0320009
(1669735232.347894) vcan0 158#000000000000000A
(1669735232.347900) vcan0 161#000005500108000D
(1669735232.347907) vcan0 191#010090A1410030
(1669735232.349865) vcan0 133#0000000098
(1669735232.349885) vcan0 136#000200000000001B
(1669735232.349891) vcan0 13A#0000000000000019
(1669735232.349899) vcan0 13F#000000050000001F
(1669735232.349905) vcan0 164#0000C01AA8000031
(1669735232.349911) vcan0 17C#0000000010000012
(1669735232.349917) vcan0 18E#00005C
(1669735232.349923) vcan0 309#00000000000000A2
(1669735232.349973) vcan0 244#00000001BC
(1669735232.351770) vcan0 183#0000000F0000101B
(1669735232.351819) vcan0 143#6B6B00D1
(1669735232.354087) vcan0 095#800007F400000008
(1669735232.357724) vcan0 166#D0320018
(1669735232.357761) vcan0 158#0000000000000019
(1669735232.357769) vcan0 161#000005500108001C
(1669735232.359576) vcan0 191#010090A1410003
(1669735232.359598) vcan0 164#0000C01AA8000004
(1669735232.359604) vcan0 133#00000000A7
(1669735232.359610) vcan0 136#000200000000002A
(1669735232.359618) vcan0 13A#0000000000000028
(1669735232.359624) vcan0 13F#000000050000002E
(1669735232.359630) vcan0 17C#0000000010000021
(1669735232.359636) vcan0 18E#00006B
(1669735232.359644) vcan0 039#000C
(1669735232.361534) vcan0 1CF#80050000003C
(1669735232.361554) vcan0 1DC#02000039
(1669735232.361560) vcan0 183#0000000B0000102E
(1669735232.361580) vcan0 143#6B6B00E0
(1669735232.361642) vcan0 244#0000000128
(1669735232.365456) vcan0 095#800007F400000017
(1669735232.365504) vcan0 1A4#0000000800000010
(1669735232.365514) vcan0 1AA#7FFF000000006810
(1669735232.365523) vcan0 1B0#000F0000000157
(1669735232.365534) vcan0 1D0#000000000000000A
(1669735232.368777) vcan0 166#D0320027
(1669735232.368799) vcan0 158#0000000000000028
(1669735232.368806) vcan0 161#000005500108002B
(1669735232.368812) vcan0 191#010090A1410012
(1669735232.368819) vcan0 133#00000000B6
(1669735232.368825) vcan0 136#0002000000000039
(1669735232.368831) vcan0 13A#0000000000000037
(1669735232.368838) vcan0 13F#000000050000003D
(1669735232.370402) vcan0 164#0000C01AA8000013
(1669735232.370440) vcan0 17C#0000000010000030
(1669735232.370449) vcan0 18E#00007A
(1669735232.370458) vcan0 294#040B0002CF5A000E
(1669735232.370469) vcan0 21E#03E83745220601
(1669735232.372332) vcan0 183#0000000800001030
(1669735232.372359) vcan0 143#6B6B00FF
(1669735232.374266) vcan0 039#001B
(1669735232.374340) vcan0 095#800007F400000026
(1669735232.374403) vcan0 244#000000018C
(1669735232.376213) vcan0 166#D0320036
(1669735232.378162) vcan0 158#0000000000000037
(1669735232.378182) vcan0 161#000005500108003A
(1669735232.378189) vcan0 191#010090A1410021
(1669735232.378195) vcan0 133#0000000089
(1669735232.380144) vcan0 136#000200000000000C
(1669735232.380164) vcan0 13A#000000000000000A
(1669735232.380171) vcan0 13F#0000000500000000
(1669735232.380177) vcan0 164#0000C01AA8000022
(1669735232.380183) vcan0 17C#0000000010000003
(1669735232.380189) vcan0 18E#00004D
(1669735232.380195) vcan0 1CF#80050000000F
(1669735232.380201) vcan0 1DC#0200000C
(1669735232.382052) vcan0 183#0000000600001005
(1669735232.382097) vcan0 143#6B6B00C2
(1669735232.383995) vcan0 095#800007F400000035
(1669735232.385932) vcan0 1A4#000000080000002F
(1669735232.385959) vcan0 1AA#7FFF000000006720
(1669735232.385969) vcan0 1B0#000F0000000166
(1669735232.385977) vcan0 1D0#000000000000000A
(1669735232.386047) vcan0 244#00000001CB
(1669735232.388083) vcan0 166#D0320009
(1669735232.388106) vcan0 158#000000000000000A
(1669735232.388113) vcan0 161#000005500108000D
(1669735232.388119) vcan0 191#010090A1410030
(1669735232.388127) vcan0 133#0000000098
(1669735232.389872) vcan0 136#000200000000001B
(1669735232.389894) vcan0 039#002A
(1669735232.389901) vcan0 13A#0000000000000019
(1669735232.389907) vcan0 13F#000000050000001F
(1669735232.389913) vcan0 164#0000C01AA8000031
(1669735232.389919) vcan0 17C#0000000010000012
(1669735232.389925) vcan0 18E#00005C
(1669735232.391808) vcan0 183#0000000400001016
(1669735232.391825) vcan0 143#6B6B00D1
(1669735232.394759) vcan0 095#800007F400000008
(1669735232.396654) vcan0 305#8026
(1669735232.396676) vcan0 166#D0320018
(1669735232.397696) vcan0 244#0000000141
(1669735232.398651) vcan0 158#0000000000000019
(1669735232.398666) vcan0 161#000005500108001C
(1669735232.398672) vcan0 191#010090A1410003
(1669735232.398678) vcan0 133#00000000A7
(1669735232.398686) vcan0 136#000200000000002A
(1669735232.398693) vcan0 13A#0000000000000028
(1669735232.400581) vcan0 13F#000000050000002E
(1669735232.400595) vcan0 164#0000C01AA8000004
(1669735232.400603) vcan0 17C#0000000010000021
(1669735232.400608) vcan0 18E#00006B
(1669735232.400614) vcan0 1CF#80050000001E
(1669735232.400621) vcan0 1DC#0200001B
(1669735232.402591) vcan0 183#0000000300001026
(1669735232.402617) vcan0 143#6B6B00E0
(1669735232.402629) vcan0 039#0039
(1669735232.402640) vcan0 333#0000000000002D
(1669735232.405494) vcan0 095#800007F400000017
(1669735232.405524) vcan0 1A4#000000080000003E
(1669735232.405532) vcan0 1AA#7FFF00000000683E
(1669735232.405540) vcan0 1B0#000F0000000175
(1669735232.405547) vcan0 1D0#000000000000000A
(1669735232.407414) vcan0 166#D0320027
(1669735232.407433) vcan0 158#0000000000000028
(1669735232.408805) vcan0 161#000005500108002B
(1669735232.408822) vcan0 191#010090A1410012
(1669735232.408830) vcan0 133#00000000B6
(1669735232.408837) vcan0 136#0002000000000039
(1669735232.408845) vcan0 13A#0000000000000037
(1669735232.408851) vcan0 13F#000000050000003D
(1669735232.408979) vcan0 244#0000000133
(1669735232.410352) vcan0 164#0000C01AA8000013
(1669735232.410379) vcan0 17C#0000000010000030
(1669735232.410390) vcan0 18E#00007A
(1669735232.410403) vcan0 294#040B0002CF5A001D
(1669735232.410415) vcan0 21E#03E83745220610
(1669735232.412328) vcan0 183#0000000A0000103E
(1669735232.412373) vcan0 143#6B6B00FF
(1669735232.414253) vcan0 095#800007F400000026
(1669735232.417280) vcan0 166#D0320036
(1669735232.418361) vcan0 158#0000000000000037
(1669735232.418389) vcan0 161#000005500108003A
(1669735232.418403) vcan0 191#010090A1410021
(1669735232.418414) vcan0 133#0000000089
(1669735232.418428) vcan0 136#000200000000000C
(1669735232.420248) vcan0 244#00000001A2
(1669735232.420287) vcan0 13A#000000000000000A
(1669735232.420300) vcan0 13F#0000000500000000
(1669735232.420308) vcan0 164#0000C01AA8000022
(1669735232.420315) vcan0 17C#0000000010000003
(1669735232.420322) vcan0 18E#00004D
(1669735232.420330) vcan0 1CF#80050000002D
(1669735232.420336) vcan0 1DC#0200002A
(1669735232.420342) vcan0 320#000021
(1669735232.420350) vcan0 324#7465000000000E29
(1669735232.422107) vcan0 37C#FD00FD00097F0029
(1669735232.422135) vcan0 40C#014A484D46413325
(1669735232.422152) vcan0 183#0000000700001004
(1669735232.422159) vcan0 454#23EF27
(1669735232.422166) vcan0 143#6B6B00C2
(1669735232.424482) vcan0 095#800007F400000035
(1669735232.424501) vcan0 039#000C
(1669735232.424509) vcan0 1A4#0000000800000001
(1669735232.425626) vcan0 1AA#7FFF000000006801
(1669735232.425651) vcan0 1B0#000F0000000148
(1669735232.425659) vcan0 1D0#000000000000000A
(1669735232.426798) vcan0 166#D0320009
(1669735232.427983) vcan0 158#000000000000000A
(1669735232.428004) vcan0 161#000005500108000D
(1669735232.428015) vcan0 191#010090A1410030
(1669735232.429224) vcan0 133#0000000098
(1669735232.429246) vcan0 136#000200000000001B
(1669735232.429256) vcan0 13A#0000000000000019
(1669735232.429266) vcan0 13F#000000050000001F
(1669735232.429276) vcan0 164#0000C01AA8000031
(1669735232.431022) vcan0 244#00000001CA
(1669735232.431079) vcan0 17C#0000000010000012
(1669735232.431097) vcan0 18E#00005C
(1669735232.433103) vcan0 183#0000000D0000101D
(1669735232.433126) vcan0 143#6B6B00D1
(1669735232.434879) vcan0 095#800007F400000008
(1669735232.436863) vcan0 166#D0320018
(1669735232.438057) vcan0 158#0000000000000019
(1669735232.438086) vcan0 161#000005500108001C
(1669735232.438096) vcan0 191#010090A1410003
(1669735232.438105) vcan0 133#00000000A7
(1669735232.439175) vcan0 136#000200000000002A
(1669735232.439200) vcan0 13A#0000000000000028
(1669735232.439211) vcan0 13F#000000050000002E
(1669735232.439221) vcan0 164#0000C01AA8000004
(1669735232.440344) vcan0 17C#0000000010000021
(1669735232.440395) vcan0 18E#00006B
(1669735232.440408) vcan0 1CF#80050000003C
(1669735232.440419) vcan0 1DC#02000039
(1669735232.441655) vcan0 183#0000001100001027
(1669735232.441705) vcan0 143#6B6B00E0
(1669735232.442171) vcan0 244#0000000141
(1669735232.443077) vcan0 039#001B
(1669735232.444151) vcan0 095#800007F400000017
(1669735232.444175) vcan0 1A4#0000000800000010
(1669735232.445311) vcan0 1AA#7FFF000000006810
(1669735232.445334) vcan0 1B0#000F0000000157
(1669735232.445344) vcan0 1D0#000000000000000A
(1669735232.446480) vcan0 166#D0320027
(1669735232.447768) vcan0 158#0000000000000028
(1669735232.447793) vcan0 161#000005500108002B
(1669735232.448937) vcan0 191#010090A1410012
(1669735232.448961) vcan0 133#00000000B6
(1669735232.448972) vcan0 136#0002000000000039
(1669735232.448982) vcan0 13A#0000000000000037
(1669735232.448993) vcan0 13F#000000050000003D
(1669735232.450132) vcan0 164#0000C01AA8000013
(1669735232.450155) vcan0 17C#0000000010000030
(1669735232.450164) vcan0 18E#00007A
(1669735232.450174) vcan0 294#040B0002CF5A002C
(1669735232.450184) vcan0 21E#03E8374522062F
(1669735232.451459) vcan0 309#00000000000000B1
(1669735232.451479) vcan0 428#01040000521C3E
(1669735232.451489) vcan0 405#0000040000000038
(1669735232.451499) vcan0 183#0000000C0000103C
(1669735232.451509) vcan0 143#6B6B00FF
(1669735232.455413) vcan0 095#800007F400000026
(1669735232.456514) vcan0 166#D0320036
(1669735232.458310) vcan0 039#002A
(1669735232.458356) vcan0 158#0000000000000037
(1669735232.458371) vcan0 161#000005500108003A
(1669735232.458381) vcan0 191#010090A1410021
(1669735232.458391) vcan0 133#0000000089
(1669735232.458402) vcan0 136#000200000000000C
(1669735232.458485) vcan0 244#0000000182
(1669735232.460194) vcan0 13A#000000000000000A
(1669735232.460213) vcan0 13F#0000000500000000
(1669735232.460220) vcan0 164#0000C01AA8000022
(1669735232.460229) vcan0 17C#0000000010000003
(1669735232.460241) vcan0 18E#00004D
(1669735232.460248) vcan0 1CF#80050000000F
(1669735232.460265) vcan0 1DC#0200000C
(1669735232.462152) vcan0 183#000000100000100A
(1669735232.462170) vcan0 143#6B6B00C2
(1669735232.464106) vcan0 095#800007F400000035
(1669735232.464124) vcan0 1A4#000000080000002F
(1669735232.466083) vcan0 1AA#7FFF000000006720
(1669735232.466112) vcan0 1B0#000F0000000166
(1669735232.466123) vcan0 1D0#000000000000000A
(1669735232.468020) vcan0 166#D0320009
(1669735232.468042) vcan0 158#000000000000000A
(1669735232.468049) vcan0 161#000005500108000D
(1669735232.468055) vcan0 191#010090A1410030
(1669735232.470074) vcan0 133#0000000098
(1669735232.470120) vcan0 136#000200000000001B
(1669735232.470129) vcan0 13A#0000000000000019
(1669735232.470135) vcan0 13F#000000050000001F
(1669735232.470144) vcan0 164#0000C01AA9000030
(1669735232.470151) vcan0 17C#0000000010000012
(1669735232.470164) vcan0 18E#00005C
(1669735232.470231) vcan0 244#0000000112
(1669735232.471924) vcan0 039#0039
(1669735232.471947) vcan0 183#0000000C0000101E
(1669735232.471954) vcan0 143#6B6B00D1
(1669735232.473907) vcan0 095#800007F400000008
(1669735232.477769) vcan0 166#D0320018
(1669735232.477794) vcan0 158#0000000000000019
(1669735232.477801) vcan0 161#000005500108001C
(1669735232.479716) vcan0 191#010090A1410003
(1669735232.479737) vcan0 133#00000000A7
(1669735232.479744) vcan0 136#000200000000002A
(1669735232.479750) vcan0 13A#0000000000000028
(1669735232.479759) vcan0 13F#000000050000002E
(1669735232.479766) vcan0 164#0000C01AA8000004
(1669735232.479773) vcan0 17C#0000000010000021
(1669735232.479779) vcan0 18E#00006B
(1669735232.479786) vcan0 1CF#80050000001E
(1669735232.480996) vcan0 1DC#0200001B
(1669735232.481017) vcan0 183#0000001000001028
(1669735232.481088) vcan0 244#0000000198
(1669735232.482668) vcan0 143#6B6B00E0
(1669735232.484621) vcan0 095#800007F400000017
(1669735232.484645) vcan0 1A4#000000080000003E
(1669735232.484657) vcan0 1AA#7FFF00000000683E
(1669735232.486655) vcan0 1B0#000F0000000175
(1669735232.486688) vcan0 1D0#000000000000000A
(1669735232.486702) vcan0 039#000C
(1669735232.486713) vcan0 166#D0320027
(1669735232.488560) vcan0 158#0000000000000028
(1669735232.488583) vcan0 161#000005500108002B
(1669735232.488591) vcan0 191#010090A1410012
(1669735232.488597) vcan0 133#00000000B6
(1669735232.488604) vcan0 136#0002000000000039
(1669735232.488611) vcan0 13A#0000000000000037
(1669735232.490489) vcan0 13F#000000050000003D
(1669735232.490509) vcan0 164#0000C01AA8000013
(1669735232.490520) vcan0 17C#0000000010000030
(1669735232.490527) vcan0 18E#00007A
(1669735232.490534) vcan0 294#040B0002CF5A003B
(1669735232.490541) vcan0 21E#03E8374522063E
(1669735232.492456) vcan0 183#0000001300001034
(1669735232.492475) vcan0 143#6B6B00FF
(1669735232.492547) vcan0 244#00000001D1
(1669735232.494393) vcan0 095#800007F800000022
(1669735232.496313) vcan0 166#D0320036
(1669735232.498284) vcan0 158#0000000000000037
(1669735232.498304) vcan0 161#000005500108003A
(1669735232.498311) vcan0 191#010090A1410021
(1669735232.498319) vcan0 133#0000000089
(1669735232.500215) vcan0 136#000200000000000C
(1669735232.500233) vcan0 13A#000000000000000A
(1669735232.500239) vcan0 13F#0000000500000000
(1669735232.500246) vcan0 164#0000C01AA8000022
(1669735232.500253) vcan0 17C#0000000010000003
(1669735232.500260) vcan0 18E#00004D
(1669735232.500268) vcan0 1CF#80050000002D
(1669735232.500275) vcan0 1DC#0200002A
(1669735232.500281) vcan0 305#8035
(1669735232.502619) vcan0 183#0000000E0000100D
(1669735232.502652) vcan0 143#6B6B00C2
(1669735232.502663) vcan0 333#0000000000003C
(1669735232.504225) vcan0 244#000000017B
(1669735232.504267) vcan0 095#800007F800000031
(1669735232.504288) vcan0 1A4#0000000800000001
(1669735232.506147) vcan0 1AA#7FFF000000006801
(1669735232.506177) vcan0 1B0#000F0000000148
(1669735232.506189) vcan0 1D0#000000000000000A
(1669735232.506205) vcan0 039#001B
(1669735232.508039) vcan0 166#D0320009
(1669735232.508061) vcan0 158#000000000000000A
(1669735232.508071) vcan0 161#000005500108000D
(1669735232.508081) vcan0 191#010090A1410030
(1669735232.508090) vcan0 133#0000000098
(1669735232.510009) vcan0 136#000200000000001B
(1669735232.510031) vcan0 13A#0000000000000019
(1669735232.510045) vcan0 13F#000000050000001F
(1669735232.510055) vcan0 164#0000C01AA8000031
(1669735232.510064) vcan0 17C#0000000010000012
(1669735232.510074) vcan0 18E#00005C
(1669735232.511961) vcan0 183#0000000A00001010
(1669735232.511984) vcan0 143#6B6B00D1
(1669735232.514892) vcan0 095#800007F800000004
(1669735232.515931) vcan0 244#000000019C
(1669735232.516858) vcan0 166#D0320018
(1669735232.518808) vcan0 158#0000000000000019
(1669735232.518866) vcan0 161#000005500108001C
(1669735232.518878) vcan0 191#010090A1410003
(1669735232.518887) vcan0 133#00000000A7
(1669735232.518897) vcan0 136#000200000000002A
(1669735232.518905) vcan0 13A#0000000000000028
(1669735232.518914) vcan0 13F#000000050000002E
(1669735232.520823) vcan0 164#0000C01AA8000004
(1669735232.520859) vcan0 039#002A
(1669735232.520871) vcan0 17C#0000000010000021
(1669735232.520883) vcan0 18E#00006B
(1669735232.520893) vcan0 1CF#80050000003C
(1669735232.520902) vcan0 1DC#02000039
(1669735232.520911) vcan0 320#000030
(1669735232.520920) vcan0 324#7465000000000E38
(1669735232.520934) vcan0 37C#FD00FD00097F0038
(1669735232.520944) vcan0 183#0000000700001022
(1669735232.522694) vcan0 143#6B6B00E0
(1669735232.524689) vcan0 095#800007F800000013
(1669735232.524714) vcan0 1A4#0000000800000010
(1669735232.524725) vcan0 1AA#7FFF000000006810
(1669735232.524735) vcan0 1B0#000F0000000157
(1669735232.526618) vcan0 1D0#000000000000000A
(1669735232.526644) vcan0 166#D0320027
(1669735232.527637) vcan0 244#0000000155
(1669735232.528564) vcan0 158#0000000000000028
(1669735232.528585) vcan0 161#000005500108002B
(1669735232.528594) vcan0 191#010090A1410012
(1669735232.528605) vcan0 133#00000000B6
(1669735232.528614) vcan0 136#0002000000000039
(1669735232.528623) vcan0 13A#0000000000000037
(1669735232.530525) vcan0 13F#000000050000003D
(1669735232.530550) vcan0 164#0000C01AA8000013
(1669735232.530561) vcan0 17C#0000000010000030
(1669735232.530570) vcan0 18E#00007A
(1669735232.530581) vcan0 294#040B0002CF5A000E
(1669735232.530591) vcan0 21E#03E83745220601
(1669735232.532466) vcan0 183#0000000500001033
(1669735232.532486) vcan0 143#6B6B00FF
(1669735232.534431) vcan0 039#0039
(1669735232.534452) vcan0 095#800007F800000022
(1669735232.538159) vcan0 166#D0320036
(1669735232.538195) vcan0 158#0000000000000037
(1669735232.538203) vcan0 161#000005500108003A
(1669735232.538211) vcan0 191#010090A1410021
(1669735232.538287) vcan0 164#0000C01AA8000022
(1669735232.539357) vcan0 244#0000000101
(1669735232.540247) vcan0 133#0000000089
(1669735232.540264) vcan0 136#000200000000000C
(1669735232.540272) vcan0 13A#000000000000000A
(1669735232.540279) vcan0 13F#0000000500000000
(1669735232.540287) vcan0 17C#0000000010000003
(1669735232.540294) vcan0 18E#00004D
(1669735232.540300) vcan0 1CF#80050000000F
(1669735232.540306) vcan0 1DC#0200000C
(1669735232.542192) vcan0 183#0000000B00001000
(1669735232.542210) vcan0 143#6B6B00C2
(1669735232.545277) vcan0 095#800007F800000031
(1669735232.545302) vcan0 1A4#000000080000002F
(1669735232.545311) vcan0 1AA#7FFF000000006720
(1669735232.545319) vcan0 1B0#000F0000000166
(1669735232.545326) vcan0 1D0#000000000000000A
(1669735232.547111) vcan0 166#D0320009
(1669735232.549069) vcan0 158#000000000000000A
(1669735232.549088) vcan0 161#000005500108000D
(1669735232.549095) vcan0 191#010090A1410030
(1669735232.549102) vcan0 039#000C
(1669735232.549110) vcan0 133#0000000098
(1669735232.549117) vcan0 136#000200000000001B
(1669735232.549123) vcan0 13A#0000000000000019
(1669735232.549129) vcan0 13F#000000050000001F
(1669735232.551007) vcan0 164#0000C01AA8000031
(1669735232.551025) vcan0 17C#0000000010000012
(1669735232.551033) vcan0 18E#00005C
(1669735232.551039) vcan0 309#0000000000000084
(1669735232.551104) vcan0 244#0000000153
(1669735232.552326) vcan0 183#0000000800001012
(1669735232.552358) vcan0 143#6B6B00D1
(1669735232.553941) vcan0 095#800007F800000004
(1669735232.557817) vcan0 166#D0320018
(1669735232.557843) vcan0 158#0000000000000019
(1669735232.557851) vcan0 161#000005500108001C
(1669735232.559763) vcan0 191#010090A1410003
(1669735232.559789) vcan0 133#00000000A7
(1669735232.559796) vcan0 136#000200000000002A
(1669735232.559805) vcan0 13A#0000000000000028
(1669735232.559811) vcan0 13F#000000050000002E
(1669735232.559821) vcan0 164#0000C01AA8000004
(1669735232.559828) vcan0 17C#0000000010000021
(1669735232.559835) vcan0 18E#00006B
(1669735232.559841) vcan0 1CF#80050000001E
(1669735232.559848) vcan0 1DC#0200001B
(1669735232.561365) vcan0 183#0000000D0000102C
(1669735232.562753) vcan0 244#00000001C8
(1669735232.562782) vcan0 143#6B6B00E0
(1669735232.562809) vcan0 039#001B
(1669735232.563860) vcan0 095#800007F800000013
(1669735232.564991) vcan0 1A4#000000080000003E
(1669735232.565010) vcan0 1AA#7FFF00000000683E
(1669735232.565018) vcan0 1B0#000F0000000175
(1669735232.565025) vcan0 1D0#000000000000000A
(1669735232.567292) vcan0 166#D0320027
(1669735232.568429) vcan0 158#0000000000000028
(1669735232.568456) vcan0 161#000005500108002B
(1669735232.568467) vcan0 191#010090A1410012
(1669735232.568517) vcan0 133#00000000B6
(1669735232.568528) vcan0 136#0002000000000039
(1669735232.569676) vcan0 13A#0000000000000037
(1669735232.569702) vcan0 13F#000000050000003D
(1669735232.569714) vcan0 164#0000C01AA8000013
(1669735232.569725) vcan0 17C#0000000010000030
(1669735232.569775) vcan0 18E#00007A
(1669735232.569786) vcan0 294#040B0002CF5A001D
(1669735232.572332) vcan0 21E#03E83745220610
(1669735232.572370) vcan0 183#000000090000103F
(1669735232.572441) vcan0 143#6B6B00FF
(1669735232.573661) vcan0 244#0000000164
(1669735232.574829) vcan0 095#800007F800000022
(1669735232.577082) vcan0 166#D0320036
(1669735232.577107) vcan0 039#002A
(1669735232.578261) vcan0 158#0000000000000037
(1669735232.578318) vcan0 161#000005500108003A
(1669735232.578329) vcan0 191#010090A1410021
(1669735232.578338) vcan0 164#0000C01AA8000022
(1669735232.578346) vcan0 133#0000000089
(1669735232.579509) vcan0 136#000200000000000C
(1669735232.579529) vcan0 13A#000000000000000A
(1669735232.579537) vcan0 13F#0000000500000000
(1669735232.579547) vcan0 17C#0000000010000003
(1669735232.579555) vcan0 18E#00004D
(1669735232.580770) vcan0 1CF#80050000002D
(1669735232.580786) vcan0 1DC#0200002A
(1669735232.580792) vcan0 183#0000000600001005
(1669735232.581925) vcan0 143#6B6B00C2
(1669735232.584240) vcan0 095#800007F800000031
(1669735232.584261) vcan0 1A4#0000000800000001
(1669735232.585242) vcan0 244#00000001B9
(1669735232.585849) vcan0 1AA#7FFF000000006801
(1669735232.585873) vcan0 1B0#000F0000000148
(1669735232.585881) vcan0 1D0#000000000000000A
(1669735232.587381) vcan0 166#D0320009
(1669735232.589131) vcan0 158#000000000000000A
(1669735232.589160) vcan0 161#000005500108000D
(1669735232.589166) vcan0 191#010090A1410030
(1669735232.589172) vcan0 133#0000000098
(1669735232.589179) vcan0 136#000200000000001B
(1669735232.589184) vcan0 13A#0000000000000019
(1669735232.589190) vcan0 13F#000000050000001F
(1669735232.589195) vcan0 164#0000C01AA8000031
(1669735232.591304) vcan0 17C#0000000010000012
(1669735232.591331) vcan0 18E#00005C
(1669735232.591336) vcan0 183#0000000C0000101E
(1669735232.593414) vcan0 143#6B6B00D1
(1669735232.593441) vcan0 039#0039
(1669735232.594971) vcan0 095#800007F800000004
(1669735232.596834) vcan0 166#D0320018
(1669735232.596891) vcan0 244#00000001AF
(1669735232.598868) vcan0 158#0000000000000019
(1669735232.598885) vcan0 161#000005500108001C
(1669735232.598892) vcan0 191#010090A1410003
(1669735232.598897) vcan0 133#00000000A7
(1669735232.598902) vcan0 136#000200000000002A
(1669735232.598907) vcan0 13A#0000000000000028
(1669735232.598912) vcan0 13F#000000050000002E
(1669735232.600806) vcan0 164#0000C01AA8000004
(1669735232.600824) vcan0 17C#0000000010000021
(1669735232.600831) vcan0 18E#00006B
(1669735232.600841) vcan0 1CF#80050000003C
(1669735232.600849) vcan0 1DC#02000039
(1669735232.600856) vcan0 183#0000000900001020
(1669735232.602537) vcan0 143#6B6B00E0
(1669735232.602560) vcan0 333#0000000000000F
(1669735232.603750) vcan0 095#800007F800000013
(1669735232.605695) vcan0 1A4#0000000800000010
(1669735232.605725) vcan0 1AA#7FFF000000006711
(1669735232.605733) vcan0 1B0#000F0000000157
(1669735232.605739) vcan0 1D0#000000000000000A
(1669735232.605745) vcan0 305#8008
(1669735232.608009) vcan0 166#D0320027
(1669735232.608042) vcan0 158#0000000000000028
(1669735232.608050) vcan0 161#000005500108002B
(1669735232.608057) vcan0 191#010090A1410012
(1669735232.608134) vcan0 244#00000001BA
(1669735232.609639) vcan0 133#00000000B6
(1669735232.609676) vcan0 136#0002000000000039
(1669735232.609684) vcan0 13A#0000000000000037
(1669735232.609694) vcan0 13F#000000050000003D
(1669735232.609703) vcan0 164#0000C01AA8000013
(1669735232.609712) vcan0 17C#0000000010000030
(1669735232.609721) vcan0 18E#00007A
(1669735232.609728) vcan0 294#040B0002CF5A002C
(1669735232.611529) vcan0 21E#03E8374522062F
(1669735232.611544) vcan0 183#0000000E0000103A
(1669735232.611551) vcan0 143#6B6B00FF
(1669735232.613428) vcan0 039#000C
(1669735232.615433) vcan0 095#800007F800000022
(1669735232.617342) vcan0 166#D0320036
(1669735232.619329) vcan0 158#0000000000000037
(1669735232.619352) vcan0 161#000005500108003A
(1669735232.619361) vcan0 191#010010A1410029
(1669735232.619368) vcan0 133#0000000089
(1669735232.619378) vcan0 136#000200000000000C
(1669735232.619386) vcan0 13A#000000000000000A
(1669735232.619394) vcan0 13F#0000000500000000
(1669735232.619402) vcan0 164#0000C01AA8000022
(1669735232.619409) vcan0 17C#0000000010000003
(1669735232.619477) vcan0 244#0000000131
(1669735232.621276) vcan0 18E#00004D
(1669735232.621296) vcan0 1CF#80050000000F
(1669735232.621302) vcan0 1DC#0200000C
(1669735232.621307) vcan0 320#000003
(1669735232.621313) vcan0 324#7465000000000E0B
(1669735232.621319) vcan0 37C#FD00FD00097F000B
(1669735232.621324) vcan0 183#0000001200001008
(1669735232.623280) vcan0 143#6B6B00C2
(1669735232.625280) vcan0 095#800007F800000031
(1669735232.625295) vcan0 1A4#000000080000002F
(1669735232.625301) vcan0 039#001B
(1669735232.625307) vcan0 1AA#7FFF000000006720
(1669735232.625312) vcan0 1B0#000F0000000166
(1669735232.625320) vcan0 1D0#000000000000000A
(1669735232.627218) vcan0 166#D0320009
(1669735232.629124) vcan0 158#000000000000000A
(1669735232.629137) vcan0 161#000005500108000D
(1669735232.629144) vcan0 191#010010A1410038
(1669735232.629149) vcan0 133#0000000098
(1669735232.629155) vcan0 136#000200000000001B
(1669735232.629162) vcan0 13A#0000000000000019
(1669735232.629168) vcan0 13F#000000050000001F
(1669735232.629173) vcan0 164#0000C01AA8000031
(1669735232.631125) vcan0 17C#0000000010000012
(1669735232.631139) vcan0 18E#00005C
(1669735232.631192) vcan0 244#00000001D8
(1669735232.633028) vcan0 183#0000000D0000101D
(1669735232.633043) vcan0 143#6B6B00D1
(1669735232.634364) vcan0 095#800007F800000004
